 (000.000000)  can0  123   [8]  98 00 25 42 B3 24 92 FF
 (000.000273)  can0  124   [8]  98 04 AD A3 41 05 B7 08
 (000.009888)  can0  123   [8]  99 00 25 42 B2 29 CC FF
 (000.009983)  can0  124   [8]  99 04 AD CA 23 05 AF 08
 (000.019818)  can0  123   [8]  9A 00 25 42 B1 4E 5E FF
 (000.019914)  can0  124   [8]  9A 04 AD F1 17 05 A8 08
 (000.029693)  can0  123   [8]  9B 00 25 42 B0 53 98 FF
 (000.029778)  can0  124   [8]  9B 04 AE 17 F6 05 A0 08
 (000.039538)  can0  123   [8]  9C 00 25 42 AF 58 D1 FF
 (000.039838)  can0  124   [8]  9C 04 AE 3E F0 05 98 08
 (000.049688)  can0  123   [8]  9D 00 25 42 AE 7D 63 FF
 (000.049725)  can0  124   [8]  9D 04 AE 65 CC 05 91 08
 (000.059532)  can0  123   [8]  9E 00 25 42 AD A1 F5 FF
 (000.059719)  can0  124   [8]  9E 04 AE 8C C4 05 8A 08
 (000.069444)  can0  123   [8]  9F 00 25 42 AC A7 2F FF
 (000.069619)  can0  124   [8]  9F 04 AE B3 9D 05 82 08
 (000.079321)  can0  123   [8]  A0 00 25 42 AB CB C1 FF
 (000.079544)  can0  124   [8]  A0 04 AE DA 99 05 7B 08
 (000.089372)  can0  123   [8]  A1 00 25 42 AA F0 54 FF
 (000.089398)  can0  124   [8]  A1 04 AF 01 77 05 74 08
 (000.099117)  can0  123   [8]  A2 00 25 42 A9 F5 8D FF
 (000.099365)  can0  124   [8]  A2 04 AF 28 70 05 6C 08
 (000.109076)  can0  123   [8]  A3 00 25 42 A9 1A 20 FF
 (000.109291)  can0  124   [8]  A3 04 AF 4F 4D 05 65 08
 (000.118939)  can0  123   [8]  A4 00 25 42 A8 3E B2 FF
 (000.119100)  can0  124   [8]  A4 04 AF 76 47 05 5E 08
 (000.128847)  can0  123   [8]  A5 00 25 42 A7 63 44 FF
 (000.128994)  can0  124   [8]  A5 04 AF 9D 25 05 57 08
 (000.138736)  can0  123   [8]  A6 00 25 42 A6 87 D6 FF
 (000.138888)  can0  124   [8]  A6 04 AF C4 1C 05 50 08
 (000.148615)  can0  123   [8]  A7 00 25 42 A5 8D 0F FF
 (000.148777)  can0  124   [8]  A7 04 AF EA F7 05 48 08
 (000.158683)  can0  123   [8]  A8 00 25 42 A4 B1 A2 FF
 (000.158699)  can0  124   [8]  A8 04 B0 11 ED 05 41 08
 (000.168701)  can0  123   [8]  A9 00 25 42 A3 D6 34 FF
 (000.168718)  can0  124   [8]  A9 04 B0 38 C5 05 3A 08
 (000.178392)  can0  123   [8]  AA 00 25 42 A2 FA C7 FF
 (000.178598)  can0  124   [8]  AA 04 B0 5F BC 05 33 08
 (000.188325)  can0  123   [8]  AB 00 25 42 A2 1F 58 FF
 (000.188498)  can0  124   [8]  AB 04 B0 86 99 05 2C 08
 (000.198477)  can0  123   [8]  AC 00 25 42 A1 43 EB FF
 (000.198532)  can0  124   [8]  AC 04 B0 AD 9A 05 25 08
 (000.208451)  can0  123   [8]  AD 00 25 42 A0 68 7D FF
 (000.208474)  can0  124   [8]  AD 04 B0 D4 7A 05 1E 08
 (000.218070)  can0  123   [8]  AE 00 25 42 9F 8D 10 FF
 (000.218328)  can0  124   [8]  AE 04 B0 FB 79 05 17 08
 (000.228209)  can0  123   [8]  AF 00 25 42 9E B1 A2 FF
 (000.228230)  can0  124   [8]  AF 04 B1 22 55 05 10 08
 (000.237891)  can0  123   [8]  B0 00 26 42 9D D6 34 FF
 (000.238074)  can0  124   [8]  B0 04 B1 49 51 05 09 08
 (000.247837)  can0  123   [8]  B1 00 26 42 9C FA C6 FF
 (000.247950)  can0  124   [8]  B1 04 B1 70 35 05 02 08
 (000.257739)  can0  123   [8]  B2 00 26 42 9C 3E B2 FF
 (000.257972)  can0  124   [8]  B2 04 B1 97 2F 04 FC 08
 (000.267640)  can0  123   [8]  B3 00 26 42 9B 63 44 FF
 (000.267950)  can0  124   [8]  B3 04 B1 BE 0C 04 F5 08
 (000.277564)  can0  123   [8]  B4 00 26 42 9A 87 D6 FF
 (000.277776)  can0  124   [8]  B4 04 B1 E5 07 04 EE 08
 (000.287460)  can0  123   [8]  B5 00 26 42 99 AC 68 FF
 (000.287670)  can0  124   [8]  B5 04 B2 0B EA 04 E7 08
 (000.297659)  can0  123   [8]  B6 00 26 42 98 D0 FB FF
 (000.297684)  can0  124   [8]  B6 04 B2 32 EA 04 E0 08
 (000.307261)  can0  123   [8]  B7 00 26 42 98 14 E6 FF
 (000.307447)  can0  124   [8]  B7 04 B2 59 CB 04 DA 08
 (000.317471)  can0  123   [8]  B8 00 26 42 97 39 78 FF
 (000.317498)  can0  124   [8]  B8 04 B2 80 C8 04 D3 08
 (000.327167)  can0  123   [8]  B9 00 26 42 96 5E 0B FF
 (000.327408)  can0  124   [8]  B9 04 B2 A7 A8 04 CC 08
 (000.337069)  can0  123   [8]  BA 00 26 42 95 82 9D FF
 (000.337254)  can0  124   [8]  BA 04 B2 CE A5 04 C5 08
 (000.346995)  can0  123   [8]  BB 00 26 42 94 C6 88 FF
 (000.347215)  can0  124   [8]  BB 04 B2 F5 86 04 BF 08
 (000.357056)  can0  123   [8]  BC 00 26 42 93 EB 1A FF
 (000.357075)  can0  124   [8]  BC 04 B3 1C 82 04 B8 08
 (000.366817)  can0  123   [8]  BD 00 26 42 93 0F AD FF
 (000.367043)  can0  124   [8]  BD 04 B3 43 5F 04 B1 08
 (000.376717)  can0  123   [8]  BE 00 26 42 92 34 3F FF
 (000.376947)  can0  124   [8]  BE 04 B3 6A 58 04 AA 08
 (000.386610)  can0  123   [8]  BF 00 26 42 91 58 D1 FF
 (000.386775)  can0  124   [8]  BF 04 B3 91 40 04 A3 08
 (000.396546)  can0  123   [8]  C0 00 26 42 90 7D 63 FF
 (000.396703)  can0  124   [8]  C0 04 B3 B8 36 04 9C 08
 (000.406480)  can0  123   [8]  C1 00 26 42 8F C1 4F FF
 (000.406692)  can0  124   [8]  C1 04 B3 DF 16 04 96 08
 (000.416361)  can0  123   [8]  C2 00 26 42 8E E5 E1 FF
 (000.416609)  can0  124   [8]  C2 04 B4 06 16 04 8F 08
 (000.426381)  can0  123   [8]  C3 00 26 42 8E 29 CC FF
 (000.426399)  can0  124   [8]  C3 04 B4 2C F3 04 89 08
 (000.436195)  can0  123   [8]  C4 00 26 42 8D 4E 5E FF
 (000.436359)  can0  124   [8]  C4 04 B4 53 F0 04 82 08
 (000.446294)  can0  123   [8]  C5 00 27 42 8C 92 49 FF
 (000.446328)  can0  124   [8]  C5 04 B4 7A CF 04 7C 08
 (000.456185)  can0  123   [8]  C6 00 27 42 8B B6 DB FF
 (000.456218)  can0  124   [8]  C6 04 B4 A1 CC 04 75 08
 (000.466052)  can0  123   [8]  C7 00 27 42 8A FA C7 FF
 (000.466083)  can0  124   [8]  C7 04 B4 C8 AB 04 6F 08
 (000.475929)  can0  123   [8]  C8 00 27 42 8A 1F 59 FF
 (000.476332)  can0  124   [8]  C8 04 B4 EF A8 04 68 08
 (000.485686)  can0  123   [8]  C9 00 27 42 89 63 44 FF
 (000.485932)  can0  124   [8]  C9 04 B5 16 89 04 62 08
 (000.495682)  can0  123   [8]  CA 00 27 42 88 87 D6 FF
 (000.495850)  can0  124   [8]  CA 04 B5 3D 84 04 5B 08
 (000.505554)  can0  123   [8]  CB 00 27 42 87 AC 69 FF
 (000.505735)  can0  124   [8]  CB 04 B5 64 63 04 54 08
 (000.515525)  can0  123   [8]  CC 00 27 42 86 F0 53 FF
 (000.515698)  can0  124   [8]  CC 04 B5 8B 5B 04 4E 08
 (000.525406)  can0  123   [8]  CD 00 27 42 86 34 3F FF
 (000.525576)  can0  124   [8]  CD 04 B5 B2 3E 04 48 08
 (000.535395)  can0  123   [8]  CE 00 27 42 85 58 D1 FF
 (000.535512)  can0  124   [8]  CE 04 B5 D9 3D 04 41 08
 (000.545272)  can0  123   [8]  CF 00 27 42 84 7D 63 FF
 (000.545420)  can0  124   [8]  CF 04 B6 00 22 04 3A 08
 (000.555136)  can0  123   [8]  D0 00 27 42 83 A1 F6 FF
 (000.555317)  can0  124   [8]  D0 04 B6 27 22 04 33 08
 (000.565138)  can0  123   [8]  D1 00 27 42 82 E5 E1 FF
 (000.565260)  can0  124   [8]  D1 04 B6 4E 05 04 2D 08
 (000.574988)  can0  123   [8]  D2 00 27 42 82 0A 73 FF
 (000.575247)  can0  124   [8]  D2 04 B6 75 0A 04 26 08
 (000.584953)  can0  123   [8]  D3 00 27 42 81 2F 05 FF
 (000.585105)  can0  124   [8]  D3 04 B6 9B E7 04 1F 08
 (000.594895)  can0  123   [8]  D4 00 27 42 80 53 98 FF
 (000.595022)  can0  124   [8]  D4 04 B6 C2 E5 04 18 08
 (000.604719)  can0  123   [8]  D5 00 27 42 7E F0 54 FF
 (000.604985)  can0  124   [8]  D5 04 B6 E9 CD 04 11 08
 (000.614693)  can0  123   [8]  D6 00 27 42 7D 39 79 FF
 (000.614885)  can0  124   [8]  D6 04 B7 10 D1 04 0A 08
 (000.624601)  can0  123   [8]  D7 00 27 42 7B 82 9D FF
 (000.624766)  can0  124   [8]  D7 04 B7 37 B7 04 03 08
 (000.634459)  can0  123   [8]  D8 00 27 42 79 CB C2 FF
 (000.634691)  can0  124   [8]  D8 04 B7 5E B6 03 FC 08
 (000.644440)  can0  123   [8]  D9 00 27 42 78 53 97 FF
 (000.644694)  can0  124   [8]  D9 04 B7 85 9E 03 F6 08
 (000.654281)  can0  123   [8]  DA 00 27 42 76 5E 0B FF
 (000.654516)  can0  124   [8]  DA 04 B7 AC 9E 03 EE 08
 (000.664256)  can0  123   [8]  DB 00 28 42 74 E5 E0 FF
 (000.664388)  can0  124   [8]  DB 04 B7 D3 82 03 E8 08
 (000.674092)  can0  123   [8]  DC 00 28 42 73 2F 06 FF
 (000.674462)  can0  124   [8]  DC 04 B7 FA 84 03 E1 08
 (000.684070)  can0  123   [8]  DD 00 28 42 71 78 2A FF
 (000.684272)  can0  124   [8]  DD 04 B8 21 6C 03 DA 08
 (000.693956)  can0  123   [8]  DE 00 28 42 70 00 00 FF
 (000.694230)  can0  124   [8]  DE 04 B8 48 74 03 D4 08
 (000.703888)  can0  123   [8]  DF 00 28 42 6E 49 24 FF
 (000.704050)  can0  124   [8]  DF 04 B8 6F 58 03 CD 08
 (000.713864)  can0  123   [8]  E0 00 28 42 6C D0 FB FF
 (000.714150)  can0  124   [8]  E0 04 B8 96 55 03 C7 08
 (000.723684)  can0  123   [8]  E1 00 28 42 6B 1A 1F FF
 (000.723896)  can0  124   [8]  E1 04 B8 BD 36 03 C0 08
 (000.733600)  can0  123   [8]  E2 00 28 42 69 A1 F6 FF
 (000.733798)  can0  124   [8]  E2 04 B8 E4 30 03 BA 08
 (000.743536)  can0  123   [8]  E3 00 28 42 67 EB 1A FF
 (000.743746)  can0  124   [8]  E3 04 B9 0B 0F 03 B3 08
 (000.753461)  can0  123   [8]  E4 00 28 42 66 34 3F FF
 (000.753630)  can0  124   [8]  E4 04 B9 32 08 03 AC 08
 (000.763412)  can0  123   [8]  E5 00 28 42 64 BC 14 FF
 (000.763813)  can0  124   [8]  E5 04 B9 58 EC 03 A6 08
 (000.773328)  can0  123   [8]  E6 00 28 42 63 05 3A FF
 (000.773604)  can0  124   [8]  E6 04 B9 7F E9 03 9F 08
 (000.783198)  can0  123   [8]  E7 00 28 42 61 4E 5E FF
 (000.783463)  can0  124   [8]  E7 04 B9 A6 CC 03 98 08
 (000.793352)  can0  123   [8]  E8 00 28 42 5F D6 34 FF
 (000.793391)  can0  124   [8]  E8 04 B9 CD C3 03 92 08
 (000.803088)  can0  123   [8]  E9 00 28 42 5E 1F 58 FF
 (000.803220)  can0  124   [8]  E9 04 B9 F4 A9 03 8B 08
 (000.812955)  can0  123   [8]  EA 00 28 42 5C A7 2F FF
 (000.813156)  can0  124   [8]  EA 04 BA 1B A2 03 85 08
 (000.822828)  can0  123   [8]  EB 00 28 42 5A F0 53 FF
 (000.823190)  can0  124   [8]  EB 04 BA 42 81 03 7E 08
 (000.832794)  can0  123   [8]  EC 00 29 42 59 39 78 FF
 (000.832981)  can0  124   [8]  EC 04 BA 69 76 03 77 08
 (000.842711)  can0  123   [8]  ED 00 29 42 57 C1 4F FF
 (000.843000)  can0  124   [8]  ED 04 BA 90 4F 03 71 08
 (000.852752)  can0  123   [8]  EE 00 29 42 56 0A 73 FF
 (000.852977)  can0  124   [8]  EE 04 BA B7 4A 03 6A 08
 (000.862869)  can0  123   [8]  EF 00 29 42 54 53 98 FF
 (000.862924)  can0  124   [8]  EF 04 BA DE 2C 03 63 08
 (000.872509)  can0  123   [8]  F0 00 29 42 52 DB 6E FF
 (000.872624)  can0  124   [8]  F0 04 BB 05 2B 03 5D 08
 (000.882433)  can0  123   [8]  F1 00 29 42 51 24 93 FF
 (000.882647)  can0  124   [8]  F1 04 BB 2C 08 03 56 08
 (000.892488)  can0  123   [8]  F2 00 29 42 4F AC 68 FF
 (000.892708)  can0  124   [8]  F2 04 BB 53 06 03 50 08
 (000.902426)  can0  123   [8]  F3 00 29 42 4E 34 3F FF
 (000.902595)  can0  124   [8]  F3 04 BB 79 EC 03 4A 08
 (000.912275)  can0  123   [8]  F4 00 29 42 4C 7D 63 FF
 (000.912303)  can0  124   [8]  F4 04 BB A0 EA 03 43 08
 (000.921980)  can0  123   [8]  F5 00 29 42 4B 05 3A FF
 (000.922308)  can0  124   [8]  F5 04 BB C7 CF 03 3D 08
 (000.931889)  can0  123   [8]  F6 00 29 42 49 8D 0F FF
 (000.932108)  can0  124   [8]  F6 04 BB EE CD 03 37 08
 (000.941836)  can0  123   [8]  F7 00 29 42 48 14 E6 FF
 (000.942080)  can0  124   [8]  F7 04 BC 15 AE 03 31 08
 (000.951969)  can0  123   [8]  F8 00 2A 42 46 5E 0A FF
 (000.952005)  can0  124   [8]  F8 04 BC 3C AA 03 2A 08
 (000.961744)  can0  123   [8]  F9 00 2A 42 44 E5 E1 FF
 (000.962180)  can0  124   [8]  F9 04 BC 63 88 03 24 08
 (000.971929)  can0  123   [8]  FA 00 2A 42 43 6D B8 FF
 (000.971964)  can0  124   [8]  FA 04 BC 8A 87 03 1E 08
 (000.981451)  can0  123   [8]  FB 00 2A 42 41 F5 8D FF
 (000.981793)  can0  124   [8]  FB 04 BC B1 6D 03 18 08
 (000.991739)  can0  123   [8]  FC 00 2A 42 40 7D 64 FF
 (000.991758)  can0  124   [8]  FC 04 BC D8 70 03 12 08
 (001.001426)  can0  123   [8]  FD 00 2A 42 3E C6 88 FF
 (001.001634)  can0  124   [8]  FD 04 BC FF 5B 03 0B 08
 (001.011274)  can0  123   [8]  FE 00 2A 42 3D 4E 5E FF
 (001.011450)  can0  124   [8]  FE 04 BD 26 5C 03 05 08
 (001.021196)  can0  123   [8]  FF 00 2B 42 3B D6 34 FF
 (001.021384)  can0  124   [8]  FF 04 BD 4D 3E 02 FF 08
 (001.031181)  can0  123   [8]  00 00 2B 42 3A 1F 59 FF
 (001.031490)  can0  124   [8]  00 04 BD 74 3E 02 F8 08
 (001.041129)  can0  123   [8]  01 00 2B 42 38 A7 2E FF
 (001.041265)  can0  124   [8]  01 04 BD 9B 26 02 F2 08
 (001.050925)  can0  123   [8]  02 00 2B 42 37 2F 05 FF
 (001.051259)  can0  124   [8]  02 04 BD C2 28 02 EC 08
 (001.060878)  can0  123   [8]  03 00 2B 42 35 B6 DC FF
 (001.061001)  can0  124   [8]  03 04 BD E9 12 02 E6 08
 (001.070761)  can0  123   [8]  04 00 2B 42 34 00 00 FF
 (001.070961)  can0  124   [8]  04 04 BE 10 09 02 DF 08
 (001.080683)  can0  123   [8]  05 00 2B 42 32 49 25 FF
 (001.080914)  can0  124   [8]  05 04 BE 36 EF 02 D8 08
 (001.090593)  can0  123   [8]  06 00 2B 42 30 D0 FB FF
 (001.090820)  can0  124   [8]  06 04 BE 5D EF 02 D2 08
 (001.100429)  can0  123   [8]  07 00 2B 42 2F 58 D1 FF
 (001.100667)  can0  124   [8]  07 04 BE 84 D9 02 CC 08
 (001.110385)  can0  123   [8]  08 00 2B 42 2D A1 F5 FF
 (001.110622)  can0  124   [8]  08 04 BE AB D8 02 C5 08
 (001.120288)  can0  123   [8]  09 00 2C 42 2C 29 CB FF
 (001.120514)  can0  124   [8]  09 04 BE D2 BD 02 BF 08
 (001.130229)  can0  123   [8]  0A 00 2C 42 2A B1 A2 FF
 (001.130678)  can0  124   [8]  0A 04 BE F9 B3 02 B9 08
 (001.140160)  can0  123   [8]  0B 00 2C 42 28 FA C7 FF
 (001.140381)  can0  124   [8]  0B 04 BF 20 9A 02 B2 08
 (001.150106)  can0  123   [8]  0C 00 2C 42 27 82 9D FF
 (001.150338)  can0  124   [8]  0C 04 BF 47 A0 02 AC 08
 (001.159978)  can0  123   [8]  0D 00 2C 42 26 0A 73 FF
 (001.160324)  can0  124   [8]  0D 04 BF 6E 81 02 A6 08
 (001.170028)  can0  123   [8]  0E 00 2D 42 24 92 49 FF
 (001.170202)  can0  124   [8]  0E 04 BF 95 83 02 A0 08
 (001.179814)  can0  123   [8]  0F 00 2D 42 23 1A 1F FF
 (001.180256)  can0  124   [8]  0F 04 BF BC 5C 02 9A 08
 (001.189950)  can0  123   [8]  10 00 2D 42 21 E0 A7 FF
 (001.189986)  can0  124   [8]  10 04 BF E3 65 02 95 08
 (001.199916)  can0  123   [8]  11 00 2D 42 20 68 7D FF
 (001.199950)  can0  124   [8]  11 04 C0 0A 49 02 8F 08
 (001.209612)  can0  123   [8]  12 00 2E 42 1E F0 54 FF
 (001.209957)  can0  124   [8]  12 04 C0 31 46 02 89 08
 (001.219638)  can0  123   [8]  13 00 2E 42 1D 78 2A FF
 (001.219679)  can0  124   [8]  13 04 C0 58 2D 02 83 08
 (001.229470)  can0  123   [8]  14 00 2E 42 1C 00 00 FF
 (001.229617)  can0  124   [8]  14 04 C0 7F 26 02 7D 08
 (001.239495)  can0  123   [8]  15 00 2E 42 1A 87 D6 FF
 (001.239513)  can0  124   [8]  15 04 C0 A6 08 02 77 08
 (001.249355)  can0  123   [8]  16 00 2F 42 19 0F AC FF
 (001.249499)  can0  124   [8]  16 04 C0 CD 08 02 71 08
 (001.259220)  can0  123   [8]  17 00 2F 42 17 97 82 FF
 (001.259353)  can0  124   [8]  17 04 C0 F3 EB 02 6B 08
 (001.269176)  can0  123   [8]  18 00 2F 42 16 5E 0B FF
 (001.269451)  can0  124   [8]  18 04 C1 1A EA 02 66 08
 (001.278989)  can0  123   [8]  19 00 2F 42 14 A7 2F FF
 (001.279523)  can0  124   [8]  19 04 C1 41 CD 02 5F 08
 (001.288869)  can0  123   [8]  1A 00 30 42 13 2F 05 FF
 (001.289111)  can0  124   [8]  1A 04 C1 68 CE 02 59 08
 (001.298765)  can0  123   [8]  1B 00 30 42 11 B6 DC FF
 (001.299289)  can0  124   [8]  1B 04 C1 8F B0 02 53 08
 (001.308772)  can0  123   [8]  1C 00 30 42 10 3E B2 FF
 (001.308901)  can0  124   [8]  1C 04 C1 B6 B3 02 4D 08
 (001.318593)  can0  123   [8]  1D 00 31 42 0E C6 88 FF
 (001.318950)  can0  124   [8]  1D 04 C1 DD 9B 02 47 08
 (001.328550)  can0  123   [8]  1E 00 31 42 0D 4E 5E FF
 (001.328813)  can0  124   [8]  1E 04 C2 04 9B 02 41 08
 (001.338425)  can0  123   [8]  1F 00 31 42 0B 97 82 FF
 (001.338669)  can0  124   [8]  1F 04 C2 2B 87 02 3A 08
 (001.348440)  can0  123   [8]  20 00 32 42 0A 1F 59 FF
 (001.348746)  can0  124   [8]  20 04 C2 52 80 02 34 08
 (001.358283)  can0  123   [8]  21 00 32 42 08 A7 2F FF
 (001.358578)  can0  124   [8]  21 04 C2 79 69 02 2E 08
 (001.368227)  can0  123   [8]  22 00 33 42 07 2F 06 FF
 (001.368547)  can0  124   [8]  22 04 C2 A0 66 02 28 08
 (001.378086)  can0  123   [8]  23 00 33 42 05 B6 DC FF
 (001.378329)  can0  124   [8]  23 04 C2 C7 4D 02 22 08
 (001.388033)  can0  123   [8]  24 00 34 42 04 7D 63 FF
 (001.388261)  can0  124   [8]  24 04 C2 EE 4D 02 1D 08
 (001.398009)  can0  123   [8]  25 00 34 42 03 05 39 FF
 (001.398173)  can0  124   [8]  25 04 C3 15 35 02 17 08
 (001.408118)  can0  123   [8]  26 00 34 42 01 CB C1 FF
 (001.408154)  can0  124   [8]  26 04 C3 3C 39 02 12 08
 (001.417778)  can0  123   [8]  27 00 35 42 00 53 98 FF
 (001.418032)  can0  124   [8]  27 04 C3 63 23 02 0C 08
 (001.427728)  can0  123   [8]  28 00 36 41 FD B6 DC FF
 (001.427966)  can0  124   [8]  28 04 C3 8A 20 02 06 08
 (001.437635)  can0  123   [8]  29 00 36 41 FA C6 88 FF
 (001.437912)  can0  124   [8]  29 04 C3 B1 05 02 00 08
 (001.447522)  can0  123   [8]  2A 00 37 41 F8 53 97 FF
 (001.447856)  can0  124   [8]  2A 04 C3 D8 00 01 FB 08
 (001.457706)  can0  123   [8]  2B 00 38 41 F5 63 44 FF
 (001.457744)  can0  124   [8]  2B 04 C3 FE E3 01 F5 08
 (001.467446)  can0  123   [8]  2C 00 3C 41 F2 F0 54 FF
 (001.467612)  can0  124   [8]  2C 04 C4 25 E6 01 F0 08
 (001.477265)  can0  123   [8]  2D 00 3F 41 F0 7D 64 FF
 (001.477536)  can0  124   [8]  2D 04 C4 4C CA 01 EB 08
 (001.487290)  can0  123   [8]  2E 00 41 41 ED 8D 10 FF
 (001.487384)  can0  124   [8]  2E 04 C4 73 C7 01 E5 08
 (001.497079)  can0  123   [8]  2F 00 42 41 EB 1A 1F FF
 (001.497253)  can0  124   [8]  2F 04 C4 9A AB 01 E0 08
 (001.507153)  can0  123   [8]  30 00 42 41 E8 29 CB FF
 (001.507278)  can0  124   [8]  30 04 C4 C1 AC 01 DA 08
 (001.517011)  can0  123   [8]  31 00 42 41 E5 39 77 FF
 (001.517100)  can0  124   [8]  31 04 C4 E8 91 01 D4 08
 (001.526885)  can0  123   [8]  32 00 42 41 E2 C6 88 FF
 (001.527134)  can0  124   [8]  32 04 C5 0F 8C 01 CF 08
 (001.536870)  can0  123   [8]  33 00 42 41 DF D6 34 FF
 (001.537294)  can0  124   [8]  33 04 C5 36 71 01 C9 08
 (001.546789)  can0  123   [8]  34 00 42 41 DD 63 44 FF
 (001.546914)  can0  124   [8]  34 04 C5 5D 6A 01 C4 08
 (001.556873)  can0  123   [8]  35 00 41 41 DA F0 53 FF
 (001.556910)  can0  124   [8]  35 04 C5 84 4C 01 BF 08
 (001.566718)  can0  123   [8]  36 00 41 41 D8 7D 64 FF
 (001.566750)  can0  124   [8]  36 04 C5 AB 45 01 BA 08
 (001.576507)  can0  123   [8]  37 00 41 41 D5 8D 10 FF
 (001.576759)  can0  124   [8]  37 04 C5 D2 23 01 B4 08
 (001.586497)  can0  123   [8]  38 00 41 41 D3 1A 1F FF
 (001.586658)  can0  124   [8]  38 04 C5 F9 28 01 AF 08
 (001.596509)  can0  123   [8]  39 00 41 41 D0 29 CB FF
 (001.596543)  can0  124   [8]  39 04 C6 20 0C 01 A9 08
 (001.606383)  can0  123   [8]  3A 00 41 41 CD B6 DC FF
 (001.606397)  can0  124   [8]  3A 04 C6 47 07 01 A4 08
 (001.616173)  can0  123   [8]  3B 00 40 41 CA C6 88 FF
 (001.616303)  can0  124   [8]  3B 04 C6 6D F0 01 9E 08
 (001.626017)  can0  123   [8]  3C 00 40 41 C7 D6 34 FF
 (001.626394)  can0  124   [8]  3C 04 C6 94 EC 01 98 08
 (001.636000)  can0  123   [8]  3D 00 40 41 C5 63 44 FF
 (001.636097)  can0  124   [8]  3D 04 C6 BB D0 01 93 08
 (001.645861)  can0  123   [8]  3E 00 40 41 C2 F0 53 FF
 (001.646200)  can0  124   [8]  3E 04 C6 E2 D0 01 8E 08
 (001.655824)  can0  123   [8]  3F 00 40 41 C0 00 01 FF
 (001.655967)  can0  124   [8]  3F 04 C7 09 B0 01 88 08
 (001.665671)  can0  123   [8]  40 00 40 41 BD 8D 10 FF
 (001.666022)  can0  124   [8]  40 04 C7 30 A8 01 83 08
 (001.675568)  can0  123   [8]  41 00 40 41 BA 9C BC FF
 (001.675879)  can0  124   [8]  41 04 C7 57 8A 01 7D 08
 (001.685560)  can0  123   [8]  42 00 40 41 B8 29 CB FF
 (001.685720)  can0  124   [8]  42 04 C7 7E 87 01 78 08
 (001.695404)  can0  123   [8]  43 00 40 41 B5 B6 DC FF
 (001.695696)  can0  124   [8]  43 04 C7 A5 66 01 73 08
 (001.705379)  can0  123   [8]  44 00 3F 41 B3 43 EB FF
 (001.705549)  can0  124   [8]  44 04 C7 CC 65 01 6E 08
 (001.715421)  can0  123   [8]  45 00 3F 41 B0 D0 FB FF
 (001.715434)  can0  124   [8]  45 04 C7 F3 45 01 69 08
 (001.725205)  can0  123   [8]  46 00 3F 41 AE 5E 0B FF
 (001.725378)  can0  124   [8]  46 04 C8 1A 44 01 64 08
 (001.735330)  can0  123   [8]  47 00 3F 41 AB EB 1A FF
 (001.735336)  can0  124   [8]  47 04 C8 41 28 01 5F 08
 (001.745063)  can0  123   [8]  48 00 3F 41 A9 78 2A FF
 (001.745234)  can0  124   [8]  48 04 C8 68 24 01 5A 08
 (001.755085)  can0  123   [8]  49 00 3F 41 A7 05 39 FF
 (001.755098)  can0  124   [8]  49 04 C8 8E FD 01 55 08
 (001.764952)  can0  123   [8]  4A 00 3F 41 A4 92 49 FF
 (001.764961)  can0  124   [8]  4A 04 C8 B6 01 01 50 08
 (001.774755)  can0  123   [8]  4B 00 3F 41 A2 1F 58 FF
 (001.775075)  can0  124   [8]  4B 04 C8 DC DF 01 4B 08
 (001.784759)  can0  123   [8]  4C 00 3F 41 9F AC 68 FF
 (001.784917)  can0  124   [8]  4C 04 C9 03 D7 01 46 08
 (001.794508)  can0  123   [8]  4D 00 3F 41 9D 39 78 FF
 (001.794763)  can0  124   [8]  4D 04 C9 2A B7 01 41 08
 (001.804472)  can0  123   [8]  4E 00 3F 41 9A C6 88 FF
 (001.804770)  can0  124   [8]  4E 04 C9 51 AF 01 3C 08
 (001.814587)  can0  123   [8]  4F 00 3F 41 98 D0 FB FF
 (001.814701)  can0  124   [8]  4F 04 C9 78 90 01 38 08
 (001.824601)  can0  123   [8]  50 00 3F 41 95 E0 A7 FF
 (001.824646)  can0  124   [8]  50 04 C9 9F 8D 01 32 08
 (001.834320)  can0  123   [8]  51 00 3E 41 93 6D B7 FF
 (001.834719)  can0  124   [8]  51 04 C9 C6 6F 01 2D 08
 (001.845748)  can0  123   [8]  52 00 3E 41 90 FA C6 FF
 (001.845777)  can0  124   [8]  52 04 C9 ED 68 01 28 08
 (001.854017)  can0  123   [8]  53 00 3E 41 8E 87 D6 FF
 (001.854232)  can0  124   [8]  53 04 CA 14 45 01 23 08
 (001.863963)  can0  123   [8]  54 00 3E 41 8C 14 E6 FF
 (001.864196)  can0  124   [8]  54 04 CA 3B 3B 01 1E 08
 (001.873904)  can0  123   [8]  55 00 3E 41 89 A1 F6 FF
 (001.874132)  can0  124   [8]  55 04 CA 62 1A 01 19 08
 (001.883844)  can0  123   [8]  56 00 3E 41 87 2F 06 FF
 (001.884069)  can0  124   [8]  56 04 CA 89 17 01 14 08
 (001.893726)  can0  123   [8]  57 00 3E 41 84 BC 15 FF
 (001.893964)  can0  124   [8]  57 04 CA AF FA 01 0F 08
 (001.903919)  can0  123   [8]  58 00 3E 41 82 49 25 FF
 (001.903955)  can0  124   [8]  58 04 CA D6 EF 01 0A 08
 (001.913881)  can0  123   [8]  59 00 3E 41 7F AC 68 FF
 (001.913923)  can0  124   [8]  59 04 CA FD D0 01 05 08
 (001.923488)  can0  123   [8]  5A 00 3E 41 7A C6 88 FF
 (001.923696)  can0  124   [8]  5A 04 CB 24 CC 01 00 08
 (001.933479)  can0  123   [8]  5B 00 3E 41 74 E5 E0 FF
 (001.933637)  can0  124   [8]  5B 04 CB 4B AA 00 FA 08
 (001.943360)  can0  123   [8]  5C 00 3E 41 70 00 00 FF
 (001.943568)  can0  124   [8]  5C 04 CB 72 AF 00 F5 08
 (001.953718)  can0  123   [8]  5D 00 3E 41 6B 1A 1F FF
 (001.953760)  can0  124   [8]  5D 04 CB 99 8D 00 F0 08
 (001.963243)  can0  123   [8]  5E 00 3E 41 67 2F 05 FF
 (001.963386)  can0  124   [8]  5E 04 CB C0 87 00 EC 08
 (001.973096)  can0  123   [8]  5F 00 3E 41 63 43 EB FF
 (001.973336)  can0  124   [8]  5F 04 CB E7 65 00 E8 08
 (001.983186)  can0  123   [8]  60 00 3E 41 5F 58 D1 FF
 (001.983443)  can0  124   [8]  60 04 CC 0E 5D 00 E4 08
 (001.993156)  can0  123   [8]  61 00 3E 41 5A 72 F0 FF
 (001.993171)  can0  124   [8]  61 04 CC 35 3B 00 DF 08
 (002.003015)  can0  123   [8]  62 00 3E 41 56 87 D6 FF
 (002.003051)  can0  124   [8]  62 04 CC 5C 31 00 DB 08
 (002.012959)  can0  123   [8]  63 00 3E 41 51 A1 F6 FF
 (002.012993)  can0  124   [8]  63 04 CC 83 16 00 D6 08
 (002.022706)  can0  123   [8]  64 00 3E 41 4D B6 DC FF
 (002.023023)  can0  124   [8]  64 04 CC AA 14 00 D2 08
 (002.032608)  can0  123   [8]  65 00 3E 41 48 D0 FB FF
 (002.032758)  can0  124   [8]  65 04 CC D0 F6 00 CD 08
 (002.042584)  can0  123   [8]  66 00 3E 41 43 EB 1B FF
 (002.042944)  can0  124   [8]  66 04 CC F7 F1 00 C8 08
 (002.052413)  can0  123   [8]  67 00 3E 41 3F 05 39 FF
 (002.052683)  can0  124   [8]  67 04 CD 1E D6 00 C3 08
 (002.062325)  can0  123   [8]  68 00 3E 41 3B 1A 1F FF
 (002.062490)  can0  124   [8]  68 04 CD 45 D2 00 BF 08
 (002.072202)  can0  123   [8]  69 00 3D 41 36 34 3F FF
 (002.072405)  can0  124   [8]  69 04 CD 6C B7 00 BA 08
 (002.082250)  can0  123   [8]  6A 00 3D 41 32 49 25 FF
 (002.082343)  can0  124   [8]  6A 04 CD 93 B2 00 B6 08
 (002.092137)  can0  123   [8]  6B 00 3E 41 2E 5E 0B FF
 (002.092246)  can0  124   [8]  6B 04 CD BA 95 00 B2 08
 (002.102030)  can0  123   [8]  6C 00 3D 41 29 78 2A FF
 (002.102134)  can0  124   [8]  6C 04 CD E1 91 00 AD 08
 (002.111932)  can0  123   [8]  6D 00 3D 41 24 92 49 FF
 (002.111989)  can0  124   [8]  6D 04 CE 08 72 00 A8 08
 (002.121780)  can0  123   [8]  6E 00 3D 41 20 A7 2F FF
 (002.121995)  can0  124   [8]  6E 04 CE 2F 6C 00 A4 08
 (002.132177)  can0  123   [8]  6F 00 3D 41 1B C1 4F FF
 (002.132186)  can0  124   [8]  6F 04 CE 56 4F 00 9F 08
 (002.141654)  can0  123   [8]  70 00 3D 41 16 DB 6E FF
 (002.142043)  can0  124   [8]  70 04 CE 7D 4D 00 9A 08
 (002.151560)  can0  123   [8]  71 00 3D 41 11 F5 8D FF
 (002.152842)  can0  124   [8]  71 04 CE A4 30 00 95 08
 (002.161475)  can0  123   [8]  72 00 3D 41 0D 0F AC FF
 (002.161785)  can0  124   [8]  72 04 CE CB 27 00 90 08
 (002.171343)  can0  123   [8]  73 00 3D 41 09 24 92 FF
 (002.171604)  can0  124   [8]  73 04 CE F2 0B 00 8C 08
 (002.181336)  can0  123   [8]  74 00 3D 41 04 3E B2 FF
 (002.181411)  can0  124   [8]  74 04 CF 19 06 00 87 08
 (002.191247)  can0  123   [8]  75 00 3D 40 FE B1 A2 FF
 (002.191467)  can0  124   [8]  75 04 CF 3F E6 00 82 08
 (002.201175)  can0  123   [8]  76 00 3D 40 F6 DB 6E FF
 (002.201297)  can0  124   [8]  76 04 CF 66 E4 00 7E 08
 (002.210925)  can0  123   [8]  77 00 3C 40 EF 05 39 FF
 (002.211243)  can0  124   [8]  77 04 CF 8D C5 00 7A 08
 (002.220991)  can0  123   [8]  78 00 3B 40 EF 05 39 FF
 (002.221222)  can0  124   [8]  78 04 CF B4 C6 00 7A 08
 (002.230892)  can0  123   [8]  79 00 3B 40 EF 05 39 FF
 (002.231153)  can0  124   [8]  79 04 CF DB A6 00 7A 08
 (002.240783)  can0  123   [8]  7A 00 3B 40 EF 05 39 FF
 (002.241056)  can0  124   [8]  7A 04 D0 02 9D 00 7A 08
 (002.250791)  can0  123   [8]  7B 00 3B 40 EF 05 39 FF
 (002.250853)  can0  124   [8]  7B 04 D0 29 7B 00 7A 08
 (002.260670)  can0  123   [8]  7C 00 3C 40 F0 FA C7 FF
 (002.260907)  can0  124   [8]  7C 04 D0 50 7A 00 7B 08
 (002.270678)  can0  123   [8]  7D 00 3C 40 F2 F0 54 FF
 (002.270777)  can0  124   [8]  7D 04 D0 77 5F 00 7C 08
 (002.280418)  can0  123   [8]  7E 00 3C 40 F6 DB 6E FF
 (002.280621)  can0  124   [8]  7E 04 D0 9E 53 00 7E 08
 (002.290234)  can0  123   [8]  7F 00 3C 40 FA C6 88 FF
 (002.290464)  can0  124   [8]  7F 04 D0 C5 3A 00 80 08
 (002.300254)  can0  123   [8]  80 00 3C 40 FE B1 A2 FF
 (002.300595)  can0  124   [8]  80 04 D0 EC 35 00 82 08
 (002.310374)  can0  123   [8]  81 00 3C 41 03 43 EB FF
 (002.310404)  can0  124   [8]  81 04 D1 13 1A 00 86 08
 (002.320157)  can0  123   [8]  82 00 3C 41 07 2F 06 FF
 (002.320332)  can0  124   [8]  82 04 D1 3A 12 00 8A 08
 (002.330041)  can0  123   [8]  83 00 3C 41 0B 1A 1F FF
 (002.330326)  can0  124   [8]  83 04 D1 60 F7 00 8E 08
 (002.339975)  can0  123   [8]  84 00 3C 41 0F 05 39 FF
 (002.340167)  can0  124   [8]  84 04 D1 87 F4 00 92 08
 (002.349897)  can0  123   [8]  85 00 3C 41 12 F0 54 FF
 (002.350027)  can0  124   [8]  85 04 D1 AE D4 00 96 08
 (002.359802)  can0  123   [8]  86 00 3C 41 16 DB 6E FF
 (002.359985)  can0  124   [8]  86 04 D1 D5 D3 00 9A 08
 (002.370038)  can0  123   [8]  87 00 3C 41 1A C6 88 FF
 (002.370067)  can0  124   [8]  87 04 D1 FC B5 00 9E 08
 (002.379519)  can0  123   [8]  88 00 3C 41 1F AC 68 FF
 (002.379815)  can0  124   [8]  88 04 D2 23 AF 00 A3 08
 (002.389615)  can0  123   [8]  89 00 3C 41 23 97 82 FF
 (002.389725)  can0  124   [8]  89 04 D2 4A 90 00 A7 08
 (002.399448)  can0  123   [8]  8A 00 3C 41 28 7D 63 FF
 (002.399653)  can0  124   [8]  8A 04 D2 71 8E 00 AC 08
 (002.409281)  can0  123   [8]  8B 00 3C 41 2C 68 7E FF
 (002.409503)  can0  124   [8]  8B 04 D2 98 71 00 B0 08
 (002.419256)  can0  123   [8]  8C 00 3C 41 31 4E 5E FF
 (002.419655)  can0  124   [8]  8C 04 D2 BF 6E 00 B5 08
 (002.429213)  can0  123   [8]  8D 00 3C 41 35 39 78 FF
 (002.429353)  can0  124   [8]  8D 04 D2 E6 52 00 B9 08
 (002.439118)  can0  123   [8]  8E 00 3C 41 3A 1F 59 FF
 (002.439273)  can0  124   [8]  8E 04 D3 0D 4E 00 BE 08
 (002.448959)  can0  123   [8]  8F 00 3C 41 3E 0A 73 FF
 (002.449182)  can0  124   [8]  8F 04 D3 34 32 00 C2 08
 (002.458891)  can0  123   [8]  90 00 3C 41 42 F0 53 FF
 (002.459092)  can0  124   [8]  90 04 D3 5B 2E 00 C7 08
 (002.468786)  can0  123   [8]  91 00 3C 41 47 D6 34 FF
 (002.469109)  can0  124   [8]  91 04 D3 82 0F 00 CC 08
 (002.478813)  can0  123   [8]  92 00 3C 41 4C BC 14 FF
 (002.479006)  can0  124   [8]  92 04 D3 A9 0D 00 D1 08
 (002.488673)  can0  123   [8]  93 00 3C 41 51 A1 F6 FF
 (002.488885)  can0  124   [8]  93 04 D3 CF F2 00 D6 08
 (002.498539)  can0  123   [8]  94 00 3C 41 56 87 D6 FF
 (002.498785)  can0  124   [8]  94 04 D3 F6 F7 00 DB 08
 (002.508596)  can0  123   [8]  95 00 3C 41 5B 6D B7 FF
 (002.508762)  can0  124   [8]  95 04 D4 1D DF 00 E0 08
 (002.518513)  can0  123   [8]  96 00 3C 41 60 53 97 FF
 (002.518701)  can0  124   [8]  96 04 D4 44 E8 00 E5 08
 (002.528500)  can0  123   [8]  97 00 3C 41 65 39 77 FF
 (002.528674)  can0  124   [8]  97 04 D4 6B CD 00 EA 08
 (002.538332)  can0  123   [8]  98 00 3C 41 6A 1F 59 FF
 (002.538460)  can0  124   [8]  98 04 D4 92 CA 00 EF 08
 (002.548144)  can0  123   [8]  99 00 3C 41 70 00 00 FF
 (002.548477)  can0  124   [8]  99 04 D4 B9 B0 00 F5 08
 (002.558074)  can0  123   [8]  9A 00 3C 41 74 E5 E0 FF
 (002.558382)  can0  124   [8]  9A 04 D4 E0 AD 00 FA 08
 (002.568132)  can0  123   [8]  9B 00 3C 41 7A C6 88 FF
 (002.568266)  can0  124   [8]  9B 04 D5 07 8E 01 00 08
 (002.578028)  can0  123   [8]  9C 00 3C 41 7F AC 68 FF
 (002.578172)  can0  124   [8]  9C 04 D5 2E 89 01 05 08
 (002.588067)  can0  123   [8]  9D 00 3C 41 82 49 25 FF
 (002.588081)  can0  124   [8]  9D 04 D5 55 6A 01 0A 08
 (002.597814)  can0  123   [8]  9E 00 3D 41 85 39 78 FF
 (002.597928)  can0  124   [8]  9E 04 D5 7C 64 01 10 08
 (002.607703)  can0  123   [8]  9F 00 3D 41 87 AC 69 FF
 (002.607845)  can0  124   [8]  9F 04 D5 A3 47 01 15 08
 (002.617934)  can0  123   [8]  A0 00 3D 41 8A 9C BC FF
 (002.617959)  can0  124   [8]  A0 04 D5 CA 42 01 1B 08
 (002.627683)  can0  123   [8]  A1 00 3D 41 8D 0F AC FF
 (002.627706)  can0  124   [8]  A1 04 D5 F1 2A 01 20 08
 (002.637610)  can0  123   [8]  A2 00 3D 41 90 00 00 FF
 (002.638349)  can0  124   [8]  A2 04 D6 18 29 01 26 08
 (002.647532)  can0  123   [8]  A3 00 3D 41 92 F0 54 FF
 (002.647550)  can0  124   [8]  A3 04 D6 3F 07 01 2C 08
 (002.657513)  can0  123   [8]  A4 00 3D 41 95 63 44 FF
 (002.657538)  can0  124   [8]  A4 04 D6 66 02 01 31 08
 (002.667233)  can0  123   [8]  A5 00 3D 41 98 53 98 FF
 (002.667560)  can0  124   [8]  A5 04 D6 8C E4 01 37 08
 (002.677362)  can0  123   [8]  A6 00 3D 41 9B 43 EB FF
 (002.677377)  can0  124   [8]  A6 04 D6 B3 DB 01 3D 08
 (002.687119)  can0  123   [8]  A7 00 3D 41 9E 34 3F FF
 (002.687267)  can0  124   [8]  A7 04 D6 DA BE 01 43 08
 (002.697026)  can0  123   [8]  A8 00 3D 41 A1 24 92 FF
 (002.697182)  can0  124   [8]  A8 04 D7 01 BA 01 49 08
 (002.707014)  can0  123   [8]  A9 00 3D 41 A4 14 E6 FF
 (002.707038)  can0  124   [8]  A9 04 D7 28 A0 01 4F 08
 (002.716863)  can0  123   [8]  AA 00 3D 41 A7 05 39 FF
 (002.717004)  can0  124   [8]  AA 04 D7 4F A3 01 55 08
 (002.726847)  can0  123   [8]  AB 00 3E 41 A9 F5 8D FF
 (002.726870)  can0  124   [8]  AB 04 D7 76 89 01 5B 08
 (002.736786)  can0  123   [8]  AC 00 3E 41 AC E5 E1 FF
 (002.736806)  can0  124   [8]  AC 04 D7 9D 8C 01 61 08
 (002.746784)  can0  123   [8]  AD 00 3E 41 B0 53 98 FF
 (002.746809)  can0  124   [8]  AD 04 D7 C4 75 01 68 08
 (002.756593)  can0  123   [8]  AE 00 3E 41 B3 43 EB FF
 (002.756614)  can0  124   [8]  AE 04 D7 EB 76 01 6E 08
 (002.766493)  can0  123   [8]  AF 00 3E 41 B6 34 3F FF
 (002.766498)  can0  124   [8]  AF 04 D8 12 5C 01 74 08
 (002.776288)  can0  123   [8]  B0 00 3E 41 B9 A1 F6 FF
 (002.776527)  can0  124   [8]  B0 04 D8 39 61 01 7B 08
 (002.786276)  can0  123   [8]  B1 00 3E 41 BC 92 4A FF
 (002.786398)  can0  124   [8]  B1 04 D8 60 4B 01 81 08
 (002.796279)  can0  123   [8]  B2 00 3E 41 C0 00 01 FF
 (002.796301)  can0  124   [8]  B2 04 D8 87 4B 01 88 08
 (002.806095)  can0  123   [8]  B3 00 3E 41 C2 F0 53 FF
 (002.806360)  can0  124   [8]  B3 04 D8 AE 33 01 8E 08
 (002.816239)  can0  123   [8]  B4 00 3F 41 C6 5E 0A FF
 (002.816304)  can0  124   [8]  B4 04 D8 D5 30 01 95 08
 (002.825839)  can0  123   [8]  B5 00 3F 41 C9 4E 5E FF
 (002.825980)  can0  124   [8]  B5 04 D8 FC 19 01 9B 08
 (002.835764)  can0  123   [8]  B6 00 3F 41 CC BC 14 FF
 (002.836157)  can0  124   [8]  B6 04 D9 23 12 01 A2 08
 (002.845874)  can0  123   [8]  B7 00 3F 41 D0 29 CB FF
 (002.845926)  can0  124   [8]  B7 04 D9 49 FF 01 A9 08
 (002.855594)  can0  123   [8]  B8 00 3F 41 D3 97 82 FF
 (002.855874)  can0  124   [8]  B8 04 D9 71 00 01 B0 08
 (002.865529)  can0  123   [8]  B9 00 3F 41 D6 87 D6 FF
 (002.865664)  can0  124   [8]  B9 04 D9 97 EA 01 B6 08
 (002.875464)  can0  123   [8]  BA 00 3F 41 D9 F5 8D FF
 (002.875502)  can0  124   [8]  BA 04 D9 BE E6 01 BD 08
 (002.885361)  can0  123   [8]  BB 00 40 41 DD 63 44 FF
 (002.885800)  can0  124   [8]  BB 04 D9 E5 CE 01 C4 08
 (002.895665)  can0  123   [8]  BC 00 40 41 E0 D0 FA FF
 (002.895707)  can0  124   [8]  BC 04 DA 0C CE 01 CB 08
 (002.905414)  can0  123   [8]  BD 00 40 41 E4 3E B1 FF
 (002.905450)  can0  124   [8]  BD 04 DA 33 B5 01 D2 08
 (002.915147)  can0  123   [8]  BE 00 40 41 E7 AC 68 FF
 (002.915370)  can0  124   [8]  BE 04 DA 5A B6 01 D9 08
 (002.925179)  can0  123   [8]  BF 00 40 41 EB 1A 1F FF
 (002.925659)  can0  124   [8]  BF 04 DA 81 9D 01 E0 08
 (002.934892)  can0  123   [8]  C0 00 40 41 EF 05 39 FF
 (002.935259)  can0  124   [8]  C0 04 DA A8 9E 01 E8 08
 (002.944829)  can0  123   [8]  C1 00 40 41 F2 72 F0 FF
 (002.945020)  can0  124   [8]  C1 04 DA CF 86 01 EF 08
 (002.954970)  can0  123   [8]  C2 00 3E 41 F5 E0 A7 FF
 (002.954990)  can0  124   [8]  C2 04 DA F6 83 01 F6 08
 (002.964626)  can0  123   [8]  C3 00 3B 41 F9 4E 5D FF
 (002.964886)  can0  124   [8]  C3 04 DB 1D 6B 01 FD 08
 (002.974774)  can0  123   [8]  C4 00 37 41 FD 39 79 FF
 (002.974796)  can0  124   [8]  C4 04 DB 44 6A 02 05 08
 (002.984501)  can0  123   [8]  C5 00 35 42 00 53 98 FF
 (002.984890)  can0  124   [8]  C5 04 DB 6B 4B 02 0C 08
 (002.994445)  can0  123   [8]  C6 00 34 42 02 0A 73 FF
 (002.994719)  can0  124   [8]  C6 04 DB 92 47 02 13 08
 (003.004331)  can0  123   [8]  C7 00 34 42 04 00 00 FF
 (003.004733)  can0  124   [8]  C7 04 DB B9 2B 02 1B 08
 (003.014180)  can0  123   [8]  C8 00 33 42 05 B6 DC FF
 (003.014416)  can0  124   [8]  C8 04 DB E0 27 02 22 08
 (003.024876)  can0  123   [8]  C9 00 32 42 07 AC 69 FF
 (003.024907)  can0  124   [8]  C9 04 DC 07 07 02 2A 08
 (003.034391)  can0  123   [8]  CA 00 32 42 09 A1 F6 FF
 (003.034440)  can0  124   [8]  CA 04 DC 2E 0C 02 32 08
 (003.043993)  can0  123   [8]  CB 00 31 42 0B 97 82 FF
 (003.044125)  can0  124   [8]  CB 04 DC 54 F2 02 3A 08
 (003.053934)  can0  123   [8]  CC 00 31 42 0D 4E 5E FF
 (003.054338)  can0  124   [8]  CC 04 DC 7B EE 02 41 08
 (003.063827)  can0  123   [8]  CD 00 30 42 0F 43 EB FF
 (003.064000)  can0  124   [8]  CD 04 DC A2 D2 02 49 08
 (003.073973)  can0  123   [8]  CE 00 30 42 11 39 78 FF
 (003.074013)  can0  124   [8]  CE 04 DC C9 D5 02 51 08
 (003.083589)  can0  123   [8]  CF 00 2F 42 13 2F 05 FF
 (003.083996)  can0  124   [8]  CF 04 DC F0 BA 02 59 08
 (003.093707)  can0  123   [8]  D0 00 2F 42 14 E5 E1 FF
 (003.093747)  can0  124   [8]  D0 04 DD 17 B1 02 60 08
 (003.103479)  can0  123   [8]  D1 00 2F 42 16 DB 6E FF
 (003.103874)  can0  124   [8]  D1 04 DD 3E 9A 02 68 08
 (003.113414)  can0  123   [8]  D2 00 2E 42 18 D0 FB FF
 (003.113553)  can0  124   [8]  D2 04 DD 65 96 02 70 08
 (003.123293)  can0  123   [8]  D3 00 2E 42 1A C6 88 FF
 (003.123472)  can0  124   [8]  D3 04 DD 8C 72 02 78 08
 (003.133433)  can0  123   [8]  D4 00 2E 42 1C BC 15 FF
 (003.133483)  can0  124   [8]  D4 04 DD B3 6A 02 80 08
 (003.143321)  can0  123   [8]  D5 00 2D 42 1E F0 54 FF
 (003.143359)  can0  124   [8]  D5 04 DD DA 50 02 89 08
 (003.153089)  can0  123   [8]  D6 00 2D 42 20 E5 E1 FF
 (003.153268)  can0  124   [8]  D6 04 DE 01 4D 02 91 08
 (003.163096)  can0  123   [8]  D7 00 2D 42 22 DB 6E FF
 (003.163139)  can0  124   [8]  D7 04 DE 28 2F 02 99 08
 (003.173193)  can0  123   [8]  D8 00 2C 42 25 0F AC FF
 (003.173251)  can0  124   [8]  D8 04 DE 4F 27 02 A2 08
 (003.183071)  can0  123   [8]  D9 00 2C 42 27 05 39 FF
 (003.183163)  can0  124   [8]  D9 04 DE 76 09 02 AA 08
 (003.192825)  can0  123   [8]  DA 00 2C 42 28 FA C7 FF
 (003.192865)  can0  124   [8]  DA 04 DE 9D 05 02 B2 08
 (003.202811)  can0  123   [8]  DB 00 2B 42 2B 2F 05 FF
 (003.202869)  can0  124   [8]  DB 04 DE C3 EB 02 BB 08
 (003.212580)  can0  123   [8]  DC 00 2B 42 2D 24 92 FF
 (003.212934)  can0  124   [8]  DC 04 DE EA E8 02 C3 08
 (003.222605)  can0  123   [8]  DD 00 2B 42 2F 58 D1 FF
 (003.222651)  can0  124   [8]  DD 04 DF 11 C6 02 CC 08
 (003.232453)  can0  123   [8]  DE 00 2B 42 31 4E 5E FF
 (003.232586)  can0  124   [8]  DE 04 DF 38 C6 02 D4 08
 (003.242306)  can0  123   [8]  DF 00 2A 42 33 82 9D FF
 (003.242471)  can0  124   [8]  DF 04 DF 5F A6 02 DD 08
 (003.252216)  can0  123   [8]  E0 00 2A 42 35 B6 DC FF
 (003.252427)  can0  124   [8]  E0 04 DF 86 A4 02 E6 08
 (003.262132)  can0  123   [8]  E1 00 2A 42 37 AC 68 FF
 (003.262308)  can0  124   [8]  E1 04 DF AD 89 02 EE 08
 (003.271982)  can0  123   [8]  E2 00 2A 42 39 E0 A8 FF
 (003.272234)  can0  124   [8]  E2 04 DF D4 83 02 F7 08
 (003.281968)  can0  123   [8]  E3 00 2A 42 3C 14 E5 FF
 (003.282215)  can0  124   [8]  E3 04 DF FB 63 03 00 08
 (003.291859)  can0  123   [8]  E4 00 2A 42 3E 49 25 FF
 (003.292084)  can0  124   [8]  E4 04 E0 22 68 03 09 08
 (003.301843)  can0  123   [8]  E5 00 2A 42 40 7D 64 FF
 (003.301956)  can0  124   [8]  E5 04 E0 49 4B 03 12 08
 (003.311668)  can0  123   [8]  E6 00 29 42 42 B1 A2 FF
 (003.311895)  can0  124   [8]  E6 04 E0 70 50 03 1B 08
 (003.321579)  can0  123   [8]  E7 00 29 42 44 E5 E1 FF
 (003.321875)  can0  124   [8]  E7 04 E0 97 30 03 24 08
 (003.331514)  can0  123   [8]  E8 00 29 42 47 1A 20 FF
 (003.331784)  can0  124   [8]  E8 04 E0 BE 2F 03 2D 08
 (003.341448)  can0  123   [8]  E9 00 29 42 49 4E 5E FF
 (003.341947)  can0  124   [8]  E9 04 E0 E5 17 03 36 08
 (003.351386)  can0  123   [8]  EA 00 29 42 4B 82 9D FF
 (003.351592)  can0  124   [8]  EA 04 E1 0C 13 03 3F 08
 (003.361272)  can0  123   [8]  EB 00 29 42 4D F5 8E FF
 (003.361488)  can0  124   [8]  EB 04 E1 32 F3 03 49 08
 (003.371202)  can0  123   [8]  EC 00 29 42 50 29 CB FF
 (003.371393)  can0  124   [8]  EC 04 E1 59 F1 03 52 08
 (003.381157)  can0  123   [8]  ED 00 29 42 52 5E 0B FF
 (003.381347)  can0  124   [8]  ED 04 E1 80 D3 03 5B 08
 (003.391038)  can0  123   [8]  EE 00 28 42 54 D0 FB FF
 (003.391281)  can0  124   [8]  EE 04 E1 A7 D4 03 65 08
 (003.400977)  can0  123   [8]  EF 00 28 42 57 05 39 FF
 (003.401175)  can0  124   [8]  EF 04 E1 CE B7 03 6E 08
 (003.410866)  can0  123   [8]  F0 00 28 42 59 78 2A FF
 (003.411075)  can0  124   [8]  F0 04 E1 F5 B5 03 78 08
 (003.420759)  can0  123   [8]  F1 00 28 42 5B AC 69 FF
 (003.420927)  can0  124   [8]  F1 04 E2 1C 9B 03 81 08
 (003.430686)  can0  123   [8]  F2 00 28 42 5E 1F 58 FF
 (003.430890)  can0  124   [8]  F2 04 E2 43 91 03 8B 08
 (003.440578)  can0  123   [8]  F3 00 28 42 60 53 97 FF
 (003.440729)  can0  124   [8]  F3 04 E2 6A 70 03 94 08
 (003.450518)  can0  123   [8]  F4 00 28 42 62 C6 88 FF
 (003.450751)  can0  124   [8]  F4 04 E2 91 6F 03 9E 08
 (003.460449)  can0  123   [8]  F5 00 28 42 65 39 77 FF
 (003.460620)  can0  124   [8]  F5 04 E2 B8 4E 03 A8 08
 (003.470347)  can0  123   [8]  F6 00 28 42 67 AC 68 FF
 (003.470523)  can0  124   [8]  F6 04 E2 DF 4A 03 B2 08
 (003.480257)  can0  123   [8]  F7 00 28 42 6A 1F 59 FF
 (003.480442)  can0  124   [8]  F7 04 E3 06 2B 03 BC 08
 (003.490224)  can0  123   [8]  F8 00 28 42 6C 53 98 FF
 (003.490420)  can0  124   [8]  F8 04 E3 2D 27 03 C5 08
 (003.500166)  can0  123   [8]  F9 00 27 42 6E C6 87 FF
 (003.500362)  can0  124   [8]  F9 04 E3 54 09 03 CF 08
 (003.510066)  can0  123   [8]  FA 00 27 42 71 39 78 FF
 (003.510870)  can0  124   [8]  FA 04 E3 7B 04 03 D9 08
 (003.519923)  can0  123   [8]  FB 00 27 42 73 AC 69 FF
 (003.520045)  can0  124   [8]  FB 04 E3 A1 E4 03 E3 08
 (003.530063)  can0  123   [8]  FC 00 27 42 76 1F 58 FF
 (003.530086)  can0  124   [8]  FC 04 E3 C8 E1 03 ED 08
 (003.539718)  can0  123   [8]  FD 00 27 42 78 92 49 FF
 (003.539925)  can0  124   [8]  FD 04 E3 EF BE 03 F7 08
 (003.549659)  can0  123   [8]  FE 00 27 42 7B 05 3A FF
 (003.549880)  can0  124   [8]  FE 04 E4 16 C3 04 01 08
 (003.559618)  can0  123   [8]  FF 00 27 42 7D 78 2A FF
 (003.559784)  can0  124   [8]  FF 04 E4 3D A3 04 0B 08
 (003.569559)  can0  123   [8]  00 00 27 42 7F EB 1A FF
 (003.569735)  can0  124   [8]  00 04 E4 64 A2 04 15 08
 (003.579488)  can0  123   [8]  01 00 27 42 81 0F AC FF
 (003.579719)  can0  124   [8]  01 04 E4 8B 85 04 1E 08
 (003.589486)  can0  123   [8]  02 00 27 42 82 49 25 FF
 (003.589534)  can0  124   [8]  02 04 E4 B2 7D 04 28 08
 (003.599209)  can0  123   [8]  03 00 27 42 83 82 9C FF
 (003.599399)  can0  124   [8]  03 04 E4 D9 5F 04 32 08
 (003.609603)  can0  123   [8]  04 00 26 42 84 BC 15 FF
 (003.609647)  can0  124   [8]  04 04 E5 00 59 04 3C 08
 (003.619005)  can0  123   [8]  05 00 26 42 85 F5 8D FF
 (003.619311)  can0  124   [8]  05 04 E5 27 38 04 46 08
 (003.628988)  can0  123   [8]  06 00 26 42 87 2F 06 FF
 (003.629110)  can0  124   [8]  06 04 E5 4E 31 04 50 08
 (003.638937)  can0  123   [8]  07 00 26 42 88 68 7D FF
 (003.639061)  can0  124   [8]  07 04 E5 75 12 04 5A 08
 (003.648861)  can0  123   [8]  08 00 26 42 89 A1 F6 FF
 (003.649249)  can0  124   [8]  08 04 E5 9C 09 04 64 08
 (003.658865)  can0  123   [8]  09 00 26 42 8A DB 6E FF
 (003.658883)  can0  124   [8]  09 04 E5 C2 EE 04 6E 08
 (003.668920)  can0  123   [8]  0A 00 26 42 8B F5 8D FF
 (003.668943)  can0  124   [8]  0A 04 E5 E9 E9 04 77 08
 (003.678694)  can0  123   [8]  0B 00 26 42 8D 2F 05 FF
 (003.678719)  can0  124   [8]  0B 04 E6 10 C7 04 81 08
 (003.688817)  can0  123   [8]  0C 00 26 42 8E 68 7D FF
 (003.688841)  can0  124   [8]  0C 04 E6 37 C5 04 8B 08
 (003.698351)  can0  123   [8]  0D 00 26 42 8F A1 F6 FF
 (003.698561)  can0  124   [8]  0D 04 E6 5E A8 04 95 08
 (003.708491)  can0  123   [8]  0E 00 26 42 90 DB 6E FF
 (003.708510)  can0  124   [8]  0E 04 E6 85 A0 04 9F 08
 (003.718272)  can0  123   [8]  0F 00 26 42 92 14 E6 FF
 (003.718409)  can0  124   [8]  0F 04 E6 AC 7D 04 A9 08
 (003.728134)  can0  123   [8]  10 00 26 42 93 2F 05 FF
 (003.728566)  can0  124   [8]  10 04 E6 D3 7D 04 B2 08
 (003.738018)  can0  123   [8]  11 00 26 42 94 68 7D FF
 (003.738249)  can0  124   [8]  11 04 E6 FA 58 04 BC 08
 (003.747995)  can0  123   [8]  12 00 26 42 95 A1 F5 FF
 (003.748240)  can0  124   [8]  12 04 E7 21 56 04 C6 08
 (003.757856)  can0  123   [8]  13 00 26 42 96 DB 6E FF
 (003.758175)  can0  124   [8]  13 04 E7 48 37 04 D0 08
 (003.767781)  can0  123   [8]  14 00 26 42 98 14 E6 FF
 (003.768099)  can0  124   [8]  14 04 E7 6F 31 04 DA 08
 (003.777642)  can0  123   [8]  15 00 26 42 99 4E 5E FF
 (003.777854)  can0  124   [8]  15 04 E7 96 11 04 E4 08
 (003.787609)  can0  123   [8]  16 00 25 42 9A 87 D6 FF
 (003.787846)  can0  124   [8]  16 04 E7 BD 0E 04 EE 08
 (003.797535)  can0  123   [8]  17 00 25 42 9B A1 F6 FF
 (003.797773)  can0  124   [8]  17 04 E7 E3 F6 04 F7 08
 (003.807470)  can0  123   [8]  18 00 25 42 9C DB 6D FF
 (003.807660)  can0  124   [8]  18 04 E8 0A EF 05 01 08
 (003.817314)  can0  123   [8]  19 00 25 42 9E 14 E6 FF
 (003.817529)  can0  124   [8]  19 04 E8 31 DA 05 0B 08
 (003.827286)  can0  123   [8]  1A 00 25 42 9F 4E 5E FF
 (003.827450)  can0  124   [8]  1A 04 E8 58 D9 05 15 08
 (003.837210)  can0  123   [8]  1B 00 25 42 A0 68 7D FF
 (003.837592)  can0  124   [8]  1B 04 E8 7F BA 05 1E 08
 (003.847145)  can0  123   [8]  1C 00 25 42 A1 A1 F5 FF
 (003.847315)  can0  124   [8]  1C 04 E8 A6 BC 05 28 08
 (003.857001)  can0  123   [8]  1D 00 25 42 A2 DB 6E FF
 (003.857277)  can0  124   [8]  1D 04 E8 CD 9F 05 32 08
 (003.866945)  can0  123   [8]  1E 00 25 42 A4 14 E6 FF
 (003.867215)  can0  124   [8]  1E 04 E8 F4 9D 05 3C 08
 (003.876824)  can0  123   [8]  1F 00 25 42 A5 4E 5E FF
 (003.877034)  can0  124   [8]  1F 04 E9 1B 83 05 46 08
 (003.886936)  can0  123   [8]  20 00 25 42 A6 87 D6 FF
 (003.886953)  can0  124   [8]  20 04 E9 42 82 05 50 08
 (003.896715)  can0  123   [8]  21 00 25 42 A7 C1 4F FF
 (003.896865)  can0  124   [8]  21 04 E9 69 61 05 5A 08
 (003.906634)  can0  123   [8]  22 00 25 42 A8 DB 6D FF
 (003.906825)  can0  124   [8]  22 04 E9 90 61 05 63 08
 (003.916492)  can0  123   [8]  23 00 25 42 AA 14 E6 FF
 (003.916662)  can0  124   [8]  23 04 E9 B7 44 05 6D 08
 (003.926393)  can0  123   [8]  24 00 25 42 AB 4E 5E FF
 (003.926558)  can0  124   [8]  24 04 E9 DE 40 05 77 08
 (003.936362)  can0  123   [8]  25 00 24 42 AC 87 D6 FF
 (003.936562)  can0  124   [8]  25 04 EA 05 26 05 81 08
 (003.946263)  can0  123   [8]  26 00 24 42 AD A1 F5 FF
 (003.947156)  can0  124   [8]  26 04 EA 2C 27 05 8A 08
 (003.956182)  can0  123   [8]  27 00 24 42 AE DB 6E FF
 (003.956377)  can0  124   [8]  27 04 EA 53 04 05 94 08
 (003.966034)  can0  123   [8]  28 00 24 42 B0 14 E6 FF
 (003.966251)  can0  124   [8]  28 04 EA 7A 02 05 9E 08
 (003.976230)  can0  123   [8]  29 00 24 42 B1 4E 5E FF
 (003.976255)  can0  124   [8]  29 04 EA A0 E4 05 A8 08
 (003.985892)  can0  123   [8]  2A 00 24 42 B2 87 D6 FF
 (003.986060)  can0  124   [8]  2A 04 EA C7 E4 05 B2 08
 (003.995801)  can0  123   [8]  2B 00 24 42 B3 C1 4E FF
 (003.995968)  can0  124   [8]  2B 04 EA EE CA 05 BC 08
 (004.005701)  can0  123   [8]  2C 00 24 42 B4 DB 6E FF
 (004.005929)  can0  124   [8]  2C 04 EB 15 D3 05 C5 08
 (004.015640)  can0  123   [8]  2D 00 24 42 B6 14 E6 FF
 (004.015770)  can0  124   [8]  2D 04 EB 3C B0 05 CF 08
 (004.025535)  can0  123   [8]  2E 00 24 42 B7 4E 5D FF
 (004.025698)  can0  124   [8]  2E 04 EB 63 B2 05 D9 08
 (004.035489)  can0  123   [8]  2F 00 24 42 B8 68 7D FF
 (004.035664)  can0  124   [8]  2F 04 EB 8A 9D 05 E2 08
 (004.045471)  can0  123   [8]  30 00 24 42 B9 A1 F6 FF
 (004.045673)  can0  124   [8]  30 04 EB B1 9C 05 EC 08
 (004.055257)  can0  123   [8]  31 00 24 42 BA DB 6E FF
 (004.055516)  can0  124   [8]  31 04 EB D8 7B 05 F6 08
 (004.065218)  can0  123   [8]  32 00 24 42 BC 14 E5 FF
 (004.065474)  can0  124   [8]  32 04 EB FF 78 06 00 08
 (004.075153)  can0  123   [8]  33 00 25 42 BD 4E 5E FF
 (004.075317)  can0  124   [8]  33 04 EC 26 57 06 0A 08
 (004.085094)  can0  123   [8]  34 00 25 42 BE 68 7E FF
 (004.085314)  can0  124   [8]  34 04 EC 4D 59 06 13 08
 (004.095191)  can0  123   [8]  35 00 25 42 BF A1 F6 FF
 (004.095236)  can0  124   [8]  35 04 EC 74 3F 06 1D 08
 (004.104873)  can0  123   [8]  36 00 25 42 C0 DB 6D FF
 (004.105143)  can0  124   [8]  36 04 EC 9B 39 06 27 08
 (004.114843)  can0  123   [8]  37 00 26 42 C1 F5 8D FF
 (004.114989)  can0  124   [8]  37 04 EC C2 16 06 30 08
 (004.124643)  can0  123   [8]  38 00 26 42 C3 2F 05 FF
 (004.124835)  can0  124   [8]  38 04 EC E9 0B 06 3A 08
 (004.134607)  can0  123   [8]  39 00 27 42 C4 68 7E FF
 (004.134745)  can0  124   [8]  39 04 ED 0F F4 06 44 08
 (004.144547)  can0  123   [8]  3A 00 28 42 C5 A1 F5 FF
 (004.144697)  can0  124   [8]  3A 04 ED 36 F3 06 4E 08
 (004.154471)  can0  123   [8]  3B 00 28 42 C6 BC 15 FF
 (004.154613)  can0  124   [8]  3B 04 ED 5D D7 06 57 08
 (004.164870)  can0  123   [8]  3C 00 28 42 C7 F5 8D FF
 (004.164884)  can0  124   [8]  3C 04 ED 84 D6 06 61 08
 (004.174384)  can0  123   [8]  3D 00 28 42 C9 2F 06 FF
 (004.174399)  can0  124   [8]  3D 04 ED AB BE 06 6B 08
 (004.184206)  can0  123   [8]  3E 00 28 42 CA 49 25 FF
 (004.184501)  can0  124   [8]  3E 04 ED D2 BA 06 74 08
 (004.194090)  can0  123   [8]  3F 00 28 42 CB 82 9D FF
 (004.194271)  can0  124   [8]  3F 04 ED F9 99 06 7E 08
 (004.204049)  can0  123   [8]  40 00 28 42 CC BC 14 FF
 (004.204274)  can0  124   [8]  40 04 EE 20 9A 06 88 08
 (004.213905)  can0  123   [8]  41 00 29 42 CD D6 34 FF
 (004.214165)  can0  124   [8]  41 04 EE 47 81 06 91 08
 (004.223805)  can0  123   [8]  42 00 2A 42 CF 0F AC FF
 (004.224149)  can0  124   [8]  42 04 EE 6E 7B 06 9B 08
 (004.233798)  can0  123   [8]  43 00 2A 42 D0 29 CB FF
 (004.234194)  can0  124   [8]  43 04 EE 95 5E 06 A4 08
 (004.243624)  can0  123   [8]  44 00 2A 42 D1 63 44 FF
 (004.243813)  can0  124   [8]  44 04 EE BC 5B 06 AE 08
 (004.253649)  can0  123   [8]  45 00 2A 42 D2 9C BC FF
 (004.253978)  can0  124   [8]  45 04 EE E3 3D 06 B8 08
 (004.263489)  can0  123   [8]  46 00 2A 42 D3 B6 DC FF
 (004.263758)  can0  124   [8]  46 04 EF 0A 35 06 C1 08
 (004.273383)  can0  123   [8]  47 00 2B 42 D4 F0 53 FF
 (004.273607)  can0  124   [8]  47 04 EF 31 14 06 CB 08
 (004.283341)  can0  123   [8]  48 00 2B 42 D6 0A 73 FF
 (004.283514)  can0  124   [8]  48 04 EF 58 12 06 D4 08
 (004.293266)  can0  123   [8]  49 00 2B 42 D7 43 EB FF
 (004.293447)  can0  124   [8]  49 04 EF 7E EA 06 DE 08
 (004.303253)  can0  123   [8]  4A 00 2B 42 D8 7D 64 FF
 (004.303447)  can0  124   [8]  4A 04 EF A5 E5 06 E8 08
 (004.313244)  can0  123   [8]  4B 00 2B 42 D9 97 83 FF
 (004.313265)  can0  124   [8]  4B 04 EF CC CB 06 F1 08
 (004.323118)  can0  123   [8]  4C 00 2B 42 DA B1 A1 FF
 (004.323132)  can0  124   [8]  4C 04 EF F3 BD 06 FA 08
 (004.332888)  can0  123   [8]  4D 00 2B 42 DB EB 1A FF
 (004.333078)  can0  124   [8]  4D 04 F0 1A A8 07 04 08
 (004.342872)  can0  123   [8]  4E 00 2B 42 DD 24 92 FF
 (004.343060)  can0  124   [8]  4E 04 F0 41 A2 07 0E 08
 (004.352750)  can0  123   [8]  4F 00 2B 42 DE 3E B2 FF
 (004.352903)  can0  124   [8]  4F 04 F0 68 89 07 17 08
 (004.362608)  can0  123   [8]  50 00 2B 42 DF 58 D1 FF
 (004.362806)  can0  124   [8]  50 04 F0 8F 86 07 20 08
 (004.372574)  can0  123   [8]  51 00 2B 42 E0 92 49 FF
 (004.372709)  can0  124   [8]  51 04 F0 B6 6B 07 2A 08
 (004.382527)  can0  123   [8]  52 00 2B 42 E1 CB C1 FF
 (004.382653)  can0  124   [8]  52 04 F0 DD 6A 07 34 08
 (004.392362)  can0  123   [8]  53 00 2B 42 E2 E5 E0 FF
 (004.392698)  can0  124   [8]  53 04 F1 04 4F 07 3D 08
 (004.402489)  can0  123   [8]  54 00 2B 42 E4 00 00 FF
 (004.402513)  can0  124   [8]  54 04 F1 2B 50 07 46 08
 (004.412441)  can0  123   [8]  55 00 2B 42 E5 39 77 FF
 (004.412462)  can0  124   [8]  55 04 F1 52 31 07 50 08
 (004.422203)  can0  123   [8]  56 00 2B 42 E6 72 F1 FF
 (004.422435)  can0  124   [8]  56 04 F1 79 37 07 5A 08
 (004.432047)  can0  123   [8]  57 00 2B 42 E7 8D 10 FF
 (004.432270)  can0  124   [8]  57 04 F1 A0 23 07 63 08
 (004.442037)  can0  123   [8]  58 00 2B 42 E8 A7 30 FF
 (004.442228)  can0  124   [8]  58 04 F1 C7 29 07 6C 08
 (004.451926)  can0  123   [8]  59 00 2B 42 E9 E0 A7 FF
 (004.452112)  can0  124   [8]  59 04 F1 EE 0B 07 76 08
 (004.461827)  can0  123   [8]  5A 00 2B 42 EA FA C7 FF
 (004.462018)  can0  124   [8]  5A 04 F2 15 0A 07 7F 08
 (004.471771)  can0  123   [8]  5B 00 2C 42 EC 34 3F FF
 (004.472006)  can0  124   [8]  5B 04 F2 3B F4 07 89 08
 (004.481628)  can0  123   [8]  5C 00 2C 42 ED 4E 5E FF
 (004.482067)  can0  124   [8]  5C 04 F2 62 F7 07 92 08
 (004.491564)  can0  123   [8]  5D 00 2C 42 EE 87 D6 FF
 (004.492492)  can0  124   [8]  5D 04 F2 89 DE 07 9C 08
 (004.501653)  can0  123   [8]  5E 00 2C 42 EF A1 F5 FF
 (004.501684)  can0  124   [8]  5E 04 F2 B0 DA 07 A5 08
 (004.511332)  can0  123   [8]  5F 00 2C 42 F0 DB 6D FF
 (004.511577)  can0  124   [8]  5F 04 F2 D7 C2 07 AF 08
 (004.521217)  can0  123   [8]  60 00 2C 42 F1 F5 8D FF
 (004.521431)  can0  124   [8]  60 04 F2 FE BE 07 B8 08
 (004.531159)  can0  123   [8]  61 00 2C 42 F3 2F 06 FF
 (004.531294)  can0  124   [8]  61 04 F3 25 A3 07 C2 08
 (004.541101)  can0  123   [8]  62 00 2C 42 F4 49 24 FF
 (004.541247)  can0  124   [8]  62 04 F3 4C A4 07 CB 08
 (004.550916)  can0  123   [8]  63 00 2C 42 F5 63 44 FF
 (004.551153)  can0  124   [8]  63 04 F3 73 88 07 D4 08
 (004.560843)  can0  123   [8]  64 00 2C 42 F6 9C BD FF
 (004.561032)  can0  124   [8]  64 04 F3 9A 88 07 DE 08
 (004.570742)  can0  123   [8]  65 00 2D 42 F7 B6 DB FF
 (004.570942)  can0  124   [8]  65 04 F3 C1 69 07 E7 08
 (004.580709)  can0  123   [8]  66 00 2D 42 F8 F0 54 FF
 (004.580920)  can0  124   [8]  66 04 F3 E8 6B 07 F1 08
 (004.590676)  can0  123   [8]  67 00 2D 42 FA 0A 73 FF
 (004.590814)  can0  124   [8]  67 04 F4 0F 50 07 FA 08
 (004.600467)  can0  123   [8]  68 00 2D 42 FB 43 EB FF
 (004.600698)  can0  124   [8]  68 04 F4 36 50 08 04 08
 (004.610461)  can0  123   [8]  69 00 2D 42 FC 5E 0B FF
 (004.610627)  can0  124   [8]  69 04 F4 5D 31 08 0D 08
 (004.620495)  can0  123   [8]  6A 00 2D 42 FD 97 82 FF
 (004.620634)  can0  124   [8]  6A 04 F4 84 30 08 17 08
 (004.630330)  can0  123   [8]  6B 00 2E 42 FE B1 A2 FF
 (004.630505)  can0  124   [8]  6B 04 F4 AB 16 08 20 08
 (004.640387)  can0  123   [8]  6C 00 2E 42 FF EB 1A FF
 (004.640493)  can0  124   [8]  6C 04 F4 D2 17 08 2A 08
 (004.650199)  can0  123   [8]  6D 00 2E 43 00 92 49 FF
 (004.650400)  can0  124   [8]  6D 04 F4 F8 FF 08 34 08
 (004.659989)  can0  123   [8]  6E 00 2E 43 01 1F 59 FF
 (004.660234)  can0  124   [8]  6E 04 F5 1F F1 08 3D 08
 (004.669878)  can0  123   [8]  6F 00 2E 43 01 BC 15 FF
 (004.670068)  can0  124   [8]  6F 04 F5 46 DF 08 47 08
 (004.679880)  can0  123   [8]  70 00 2E 43 02 49 25 FF
 (004.680010)  can0  124   [8]  70 04 F5 6D E4 08 50 08
 (004.689766)  can0  123   [8]  71 00 2F 43 02 E5 E1 FF
 (004.690004)  can0  124   [8]  71 04 F5 94 CB 08 5A 08
 (004.699717)  can0  123   [8]  72 00 2F 43 03 82 9C FF
 (004.699939)  can0  124   [8]  72 04 F5 BB CC 08 64 08
 (004.709848)  can0  123   [8]  73 00 2F 43 04 0F AC FF
 (004.709977)  can0  124   [8]  73 04 F5 E2 AB 08 6D 08
 (004.719695)  can0  123   [8]  74 00 2F 43 04 AC 69 FF
 (004.719818)  can0  124   [8]  74 04 F6 09 AB 08 77 08
 (004.729612)  can0  123   [8]  75 00 30 43 05 39 78 FF
 (004.729618)  can0  124   [8]  75 04 F6 30 8D 08 80 08
 (004.739381)  can0  123   [8]  76 00 30 43 05 D6 34 FF
 (004.739540)  can0  124   [8]  76 04 F6 57 8A 08 8A 08
 (004.749353)  can0  123   [8]  77 00 30 43 06 72 F0 FF
 (004.749496)  can0  124   [8]  77 04 F6 7E 70 08 94 08
 (004.759260)  can0  123   [8]  78 00 30 43 07 00 00 FF
 (004.759483)  can0  124   [8]  78 04 F6 A5 74 08 9D 08
 (004.769128)  can0  123   [8]  79 00 31 43 07 8D 10 FF
 (004.769335)  can0  124   [8]  79 04 F6 CC 5F 08 A6 08
 (004.779013)  can0  123   [8]  7A 00 31 43 08 29 CC FF
 (004.779213)  can0  124   [8]  7A 04 F6 F3 60 08 B0 08
 (004.788994)  can0  123   [8]  7B 00 31 43 08 C6 88 FF
 (004.789224)  can0  124   [8]  7B 04 F7 1A 49 08 BA 08
 (004.798895)  can0  123   [8]  7C 00 32 43 09 53 97 FF
 (004.799146)  can0  124   [8]  7C 04 F7 41 49 08 C3 08
 (004.808861)  can0  123   [8]  7D 00 32 43 09 F0 54 FF
 (004.809069)  can0  124   [8]  7D 04 F7 68 33 08 CD 08
 (004.818919)  can0  123   [8]  7E 00 32 43 0A 7D 64 FF
 (004.819823)  can0  124   [8]  7E 04 F7 8F 32 08 D6 08
 (004.828633)  can0  123   [8]  7F 00 32 43 0B 1A 1F FF
 (004.828774)  can0  124   [8]  7F 04 F7 B6 19 08 E0 08
 (004.838623)  can0  123   [8]  80 00 32 43 0B A7 2F FF
 (004.838830)  can0  124   [8]  80 04 F7 DD 14 08 E9 08
 (004.848746)  can0  123   [8]  81 00 32 43 0C 43 EB FF
 (004.848765)  can0  124   [8]  81 04 F8 03 F8 08 F3 08
 (004.858440)  can0  123   [8]  82 00 32 43 0C D0 FB FF
 (004.858636)  can0  124   [8]  82 04 F8 2A F5 08 FC 08
 (004.868506)  can0  123   [8]  83 00 32 43 0D 6D B7 FF
 (004.868530)  can0  124   [8]  83 04 F8 51 DD 09 06 08
 (004.878261)  can0  123   [8]  84 00 31 43 0D FA C6 FF
 (004.878439)  can0  124   [8]  84 04 F8 78 D3 09 0F 08
 (004.888351)  can0  123   [8]  85 00 31 43 0E 97 82 FF
 (004.888374)  can0  124   [8]  85 04 F8 9F BC 09 19 08
 (004.898290)  can0  123   [8]  86 00 31 43 0F 24 92 FF
 (004.898306)  can0  124   [8]  86 04 F8 C6 BF 09 22 08
 (004.908040)  can0  123   [8]  87 00 30 43 0F C1 4F FF
 (004.908239)  can0  124   [8]  87 04 F8 ED A6 09 2C 08
 (004.918085)  can0  123   [8]  88 00 30 43 10 4E 5E FF
 (004.918109)  can0  124   [8]  88 04 F9 14 A5 09 35 08
 (004.927764)  can0  123   [8]  89 00 30 43 10 EB 1A FF
 (004.927927)  can0  124   [8]  89 04 F9 3B 8E 09 3F 08
 (004.937687)  can0  123   [8]  8A 00 2F 43 11 78 2A FF
 (004.937858)  can0  124   [8]  8A 04 F9 62 8D 09 48 08
 (004.947642)  can0  123   [8]  8B 00 2F 43 12 14 E6 FF
 (004.947816)  can0  124   [8]  8B 04 F9 89 6F 09 52 08
 (004.957545)  can0  123   [8]  8C 00 2F 43 12 A1 F6 FF
 (004.957802)  can0  124   [8]  8C 04 F9 B0 75 09 5B 08
 (004.967440)  can0  123   [8]  8D 00 2F 43 13 2F 05 FF
 (004.967616)  can0  124   [8]  8D 04 F9 D7 59 09 64 08
 (004.977430)  can0  123   [8]  8E 00 2E 43 13 CB C1 FF
 (004.977600)  can0  124   [8]  8E 04 F9 FE 55 09 6E 08
 (004.987260)  can0  123   [8]  8F 00 2E 43 14 58 D1 FF
 (004.987425)  can0  124   [8]  8F 04 FA 25 44 09 77 08
 (004.997165)  can0  123   [8]  90 00 2D 43 14 F5 8D FF
 (004.997390)  can0  124   [8]  90 04 FA 4C 45 09 81 08
 (005.007106)  can0  123   [8]  91 00 2D 43 15 82 9D FF
 (005.007258)  can0  124   [8]  91 04 FA 73 2D 09 8A 08
 (005.016994)  can0  123   [8]  92 00 2D 43 16 1F 59 FF
 (005.017198)  can0  124   [8]  92 04 FA 9A 2D 09 94 08
 (005.026833)  can0  123   [8]  93 00 2D 43 16 AC 68 FF
 (005.027029)  can0  124   [8]  93 04 FA C1 10 09 9D 08
 (005.036796)  can0  123   [8]  94 00 2C 43 17 39 78 FF
 (005.037011)  can0  124   [8]  94 04 FA E8 12 09 A6 08
 (005.046735)  can0  123   [8]  95 00 2C 43 17 D6 34 FF
 (005.046930)  can0  124   [8]  95 04 FB 0E F7 09 B0 08
 (005.056643)  can0  123   [8]  96 00 2C 43 18 63 44 FF
 (005.056755)  can0  124   [8]  96 04 FB 35 F0 09 B9 08
 (005.066596)  can0  123   [8]  97 00 2C 43 19 00 00 FF
 (005.066683)  can0  124   [8]  97 04 FB 5C D3 09 C3 08
 (005.076525)  can0  123   [8]  98 00 2C 43 19 8D 0F FF
 (005.076669)  can0  124   [8]  98 04 FB 83 CC 09 CC 08
 (005.086435)  can0  123   [8]  99 00 2C 43 1A 1A 1F FF
 (005.086688)  can0  124   [8]  99 04 FB AA B1 09 D5 08
 (005.096375)  can0  123   [8]  9A 00 2C 43 1A B6 DC FF
 (005.096571)  can0  124   [8]  9A 04 FB D1 AB 09 DF 08
 (005.106279)  can0  123   [8]  9B 00 2C 43 1B 43 EB FF
 (005.106507)  can0  124   [8]  9B 04 FB F8 8B 09 E8 08
 (005.116162)  can0  123   [8]  9C 00 2C 43 1B E0 A7 FF
 (005.116357)  can0  124   [8]  9C 04 FC 1F 86 09 F2 08
 (005.126057)  can0  123   [8]  9D 00 2C 43 1C 6D B7 FF
 (005.126267)  can0  124   [8]  9D 04 FC 46 67 09 FB 08
 (005.136103)  can0  123   [8]  9E 00 2C 43 1C FA C6 FF
 (005.136271)  can0  124   [8]  9E 04 FC 6D 66 0A 04 08
 (005.145950)  can0  123   [8]  9F 00 2D 43 1D 97 83 FF
 (005.146313)  can0  124   [8]  9F 04 FC 94 4B 0A 0E 08
 (005.155871)  can0  123   [8]  A0 00 2D 43 1E 24 93 FF
 (005.156042)  can0  124   [8]  A0 04 FC BB 45 0A 17 08
 (005.165743)  can0  123   [8]  A1 00 2E 43 1E B1 A2 FF
 (005.165898)  can0  124   [8]  A1 04 FC E2 26 0A 20 08
 (005.175674)  can0  123   [8]  A2 00 2F 43 1F 4E 5E FF
 (005.175896)  can0  124   [8]  A2 04 FD 09 1F 0A 2A 08
 (005.185734)  can0  123   [8]  A3 00 30 43 1F DB 6E FF
 (005.185754)  can0  124   [8]  A3 04 FD 30 00 0A 33 08
 (005.195785)  can0  123   [8]  A4 00 30 43 20 68 7D FF
 (005.195805)  can0  124   [8]  A4 04 FD 56 F7 0A 3C 08
 (005.205439)  can0  123   [8]  A5 00 30 43 21 05 3A FF
 (005.205593)  can0  124   [8]  A5 04 FD 7D DF 0A 46 08
 (005.215436)  can0  123   [8]  A6 00 32 43 21 92 49 FF
 (005.215451)  can0  124   [8]  A6 04 FD A4 DB 0A 4F 08
 (005.225236)  can0  123   [8]  A7 00 35 43 22 1F 58 FF
 (005.225402)  can0  124   [8]  A7 04 FD CB BE 0A 58 08
 (005.235243)  can0  123   [8]  A8 00 3E 43 22 BC 15 FF
 (005.235380)  can0  124   [8]  A8 04 FD F2 BB 0A 62 08
 (005.245044)  can0  123   [8]  A9 00 43 43 23 49 25 FF
 (005.245394)  can0  124   [8]  A9 04 FE 19 9F 0A 6B 08
 (005.255031)  can0  123   [8]  AA 00 49 43 23 D6 34 FF
 (005.255255)  can0  124   [8]  AA 04 FE 40 A7 0A 74 08
 (005.264878)  can0  123   [8]  AB 00 9E 43 24 63 44 FF
 (005.265035)  can0  124   [8]  AB 04 FE 67 75 0A 7D 08
 (005.275117)  can0  123   [8]  AC 00 E5 43 24 F0 54 FF
 (005.275140)  can0  124   [8]  AC 04 FE 8E 69 0A 86 08
 (005.284749)  can0  123   [8]  AD 00 F5 43 25 8D 0F FF
 (005.284848)  can0  124   [8]  AD 04 FE B5 52 0A 90 08
 (005.294856)  can0  123   [8]  AE 00 F8 43 26 1A 1F FF
 (005.294874)  can0  124   [8]  AE 04 FE DC 48 0A 99 08
 (005.304834)  can0  123   [8]  AF 00 F9 43 26 A7 2F FF
 (005.304859)  can0  124   [8]  AF 04 FF 03 2D 0A A2 08
 (005.314676)  can0  123   [8]  B0 00 F9 43 27 34 3F FF
 (005.314701)  can0  124   [8]  B0 04 FF 2A 21 0A AB 08
 (005.324650)  can0  123   [8]  B1 00 F9 43 27 C1 4F FF
 (005.324672)  can0  124   [8]  B1 04 FF 51 0A 0A B4 08
 (005.334284)  can0  123   [8]  B2 00 F8 43 28 4E 5E FF
 (005.334457)  can0  124   [8]  B2 04 FF 77 FB 0A BD 08
 (005.344195)  can0  123   [8]  B3 00 F7 43 28 DB 6D FF
 (005.344381)  can0  124   [8]  B3 04 FF 9E E4 0A C6 08
 (005.354183)  can0  123   [8]  B4 00 F6 43 29 68 7D FF
 (005.354362)  can0  124   [8]  B4 04 FF C5 D8 0A CF 08
 (005.364438)  can0  123   [8]  B5 00 F6 43 29 F5 8D FF
 (005.364453)  can0  124   [8]  B5 04 FF EC C0 0A D8 08
 (005.373990)  can0  123   [8]  B6 00 F5 43 2A 82 9D FF
 (005.374177)  can0  124   [8]  B6 05 00 13 B8 0A E1 08
 (005.384095)  can0  123   [8]  B7 00 F4 43 2B 0F AD FF
 (005.384118)  can0  124   [8]  B7 05 00 3A 9F 0A EA 08
 (005.393752)  can0  123   [8]  B8 00 F3 43 2B 9C BC FF
 (005.393985)  can0  124   [8]  B8 05 00 61 8F 0A F3 08
 (005.403762)  can0  123   [8]  B9 00 F3 43 2C 29 CB FF
 (005.404048)  can0  124   [8]  B9 05 00 88 76 0A FC 08
 (005.413679)  can0  123   [8]  BA 00 F1 43 2C B6 DB FF
 (005.413855)  can0  124   [8]  BA 05 00 AF 6C 0B 05 08
 (005.423548)  can0  123   [8]  BB 00 E4 43 2D 43 EB FF
 (005.423702)  can0  124   [8]  BB 05 00 D6 4C 0B 0E 08
 (005.433507)  can0  123   [8]  BC 00 C6 43 2D D0 FB FF
 (005.433642)  can0  124   [8]  BC 05 00 FD 45 0B 17 08
 (005.443364)  can0  123   [8]  BD 00 8F 43 2E 5E 0B FF
 (005.443557)  can0  124   [8]  BD 05 01 24 1F 0B 20 08
 (005.453346)  can0  123   [8]  BE 00 79 43 2E EB 1A FF
 (005.453513)  can0  124   [8]  BE 05 01 4B 1A 0B 29 08
 (005.463192)  can0  123   [8]  BF 00 5A 43 2F 78 2A FF
 (005.463432)  can0  124   [8]  BF 05 01 72 11 0B 32 08
 (005.473205)  can0  123   [8]  C0 00 47 43 30 05 39 FF
 (005.475228)  can0  124   [8]  C0 05 01 99 11 0B 3B 08
 (005.482988)  can0  123   [8]  C1 00 41 43 30 92 49 FF
 (005.483315)  can0  124   [8]  C1 05 01 BF F6 0B 44 08
 (005.492909)  can0  123   [8]  C2 00 40 43 31 1F 59 FF
 (005.493225)  can0  124   [8]  C2 05 01 E6 FA 0B 4D 08
 (005.502845)  can0  123   [8]  C3 00 42 43 31 AC 69 FF
 (005.503046)  can0  124   [8]  C3 05 02 0D D9 0B 56 08
 (005.512773)  can0  123   [8]  C4 00 42 43 32 39 78 FF
 (005.513015)  can0  124   [8]  C4 05 02 34 D8 0B 5F 08
 (005.522678)  can0  123   [8]  C5 00 43 43 32 C6 88 FF
 (005.522846)  can0  124   [8]  C5 05 02 5B BC 0B 68 08
 (005.532572)  can0  123   [8]  C6 00 44 43 33 53 97 FF
 (005.532751)  can0  124   [8]  C6 05 02 82 B9 0B 71 08
 (005.542544)  can0  123   [8]  C7 00 4F 43 33 E0 A7 FF
 (005.542745)  can0  124   [8]  C7 05 02 A9 A1 0B 7A 08
 (005.552428)  can0  123   [8]  C8 00 65 43 34 6D B7 FF
 (005.552605)  can0  124   [8]  C8 05 02 CC A2 0B 83 08
 (005.562334)  can0  123   [8]  C9 00 65 43 34 FA C6 FF
 (005.562520)  can0  124   [8]  C9 05 02 F7 71 0B 8C 08
 (005.572703)  can0  123   [8]  CA 00 52 43 35 87 D7 FF
 (005.572723)  can0  124   [8]  CA 05 03 1E 87 0B 95 08
 (005.582386)  can0  123   [8]  CB 00 4D 43 36 14 E6 FF
 (005.582408)  can0  124   [8]  CB 05 03 45 6F 0B 9E 08
 (005.592159)  can0  123   [8]  CC 00 53 43 36 A1 F6 FF
 (005.592279)  can0  124   [8]  CC 05 03 6C 6C 0B A7 08
 (005.602176)  can0  123   [8]  CD 00 66 43 37 2F 05 FF
 (005.602193)  can0  124   [8]  CD 05 03 93 3C 0B B0 08
 (005.611875)  can0  123   [8]  CE 00 7E 43 37 BC 14 FF
 (005.612100)  can0  124   [8]  CE 05 03 BA 44 0B B9 08
 (005.621814)  can0  123   [8]  CF 00 8E 43 38 49 25 FF
 (005.622007)  can0  124   [8]  CF 05 03 E1 2A 0B C2 08
 (005.631702)  can0  123   [8]  D0 00 96 43 38 D6 34 FF
 (005.631954)  can0  124   [8]  D0 05 04 08 28 0B CB 08
 (005.641598)  can0  123   [8]  D1 00 92 43 39 63 44 FF
 (005.641776)  can0  124   [8]  D1 05 04 2E FE 0B D4 08
 (005.651592)  can0  123   [8]  D2 00 78 43 39 F0 54 FF
 (005.651800)  can0  124   [8]  D2 05 04 55 F6 0B DD 08
 (005.661480)  can0  123   [8]  D3 00 54 43 3A 7D 63 FF
 (005.661676)  can0  124   [8]  D3 05 04 7C EF 0B E6 08
 (005.671387)  can0  123   [8]  D4 00 4A 43 3A FA C7 FF
 (005.671622)  can0  124   [8]  D4 05 04 A3 E7 0B EE 08
 (005.681374)  can0  123   [8]  D5 00 52 43 3B 97 82 FF
 (005.681604)  can0  124   [8]  D5 05 04 CA D3 0B F8 08
 (005.692862)  can0  123   [8]  D6 00 4D 43 3C 14 E5 FF
 (005.692883)  can0  124   [8]  D6 05 04 F1 C8 0C 00 08
 (005.701146)  can0  123   [8]  D7 00 46 43 3C B1 A2 FF
 (005.701307)  can0  124   [8]  D7 05 05 18 B2 0C 0A 08
 (005.711169)  can0  123   [8]  D8 00 45 43 3D 3E B1 FF
 (005.712807)  can0  124   [8]  D8 05 05 3F AD 0C 13 08
 (005.721205)  can0  123   [8]  D9 00 44 43 3D CB C1 FF
 (005.721223)  can0  124   [8]  D9 05 05 66 8F 0C 1C 08
 (005.730943)  can0  123   [8]  DA 00 42 43 3E 58 D1 FF
 (005.731096)  can0  124   [8]  DA 05 05 8D 85 0C 25 08
 (005.740840)  can0  123   [8]  DB 00 3F 43 3E E5 E1 FF
 (005.741003)  can0  124   [8]  DB 05 05 B4 65 0C 2E 08
 (005.750740)  can0  123   [8]  DC 00 3E 43 3F 72 F0 FF
 (005.750910)  can0  124   [8]  DC 05 05 DB 65 0C 37 08
 (005.760566)  can0  123   [8]  DD 00 3E 43 40 00 01 FF
 (005.760739)  can0  124   [8]  DD 05 06 02 40 0C 40 08
 (005.770702)  can0  123   [8]  DE 00 3D 43 40 8D 10 FF
 (005.770721)  can0  124   [8]  DE 05 06 29 38 0C 49 08
 (005.780440)  can0  123   [8]  DF 00 3C 43 41 1A 1F FF
 (005.780685)  can0  124   [8]  DF 05 06 50 1C 0C 52 08
 (005.790419)  can0  123   [8]  E0 00 3A 43 41 A7 2F FF
 (005.790566)  can0  124   [8]  E0 05 06 77 19 0C 5B 08
 (005.800249)  can0  123   [8]  E1 00 38 43 42 34 3E FF
 (005.800476)  can0  124   [8]  E1 05 06 9D FB 0C 64 08
 (005.811188)  can0  123   [8]  E2 00 37 43 42 C1 4F FF
 (005.811208)  can0  124   [8]  E2 05 06 C4 F7 0C 6D 08
 (005.820091)  can0  123   [8]  E3 00 37 43 43 4E 5E FF
 (005.820296)  can0  124   [8]  E3 05 06 EB DA 0C 76 08
 (005.830106)  can0  123   [8]  E4 00 37 43 43 EB 1B FF
 (005.830309)  can0  124   [8]  E4 05 07 12 D2 0C 80 08
 (005.839961)  can0  123   [8]  E5 00 37 43 44 78 2A FF
 (005.840110)  can0  124   [8]  E5 05 07 39 B2 0C 89 08
 (005.850083)  can0  123   [8]  E6 00 37 43 45 05 3A FF
 (005.850102)  can0  124   [8]  E6 05 07 60 AD 0C 92 08
 (005.859785)  can0  123   [8]  E7 00 36 43 45 92 49 FF
 (005.859959)  can0  124   [8]  E7 05 07 87 95 0C 9B 08
 (005.869754)  can0  123   [8]  E8 00 36 43 46 1F 58 FF
 (005.869986)  can0  124   [8]  E8 05 07 AE 93 0C A4 08
 (005.879560)  can0  123   [8]  E9 00 36 43 46 AC 69 FF
 (005.879752)  can0  124   [8]  E9 05 07 D5 79 0C AD 08
 (005.889727)  can0  123   [8]  EA 00 36 43 47 39 78 FF
 (005.889752)  can0  124   [8]  EA 05 07 FC 78 0C B6 08
 (005.899456)  can0  123   [8]  EB 00 36 43 47 C6 88 FF
 (005.899665)  can0  124   [8]  EB 05 08 23 5A 0C BF 08
 (005.909429)  can0  123   [8]  EC 00 36 43 48 53 98 FF
 (005.909437)  can0  124   [8]  EC 05 08 4A 52 0C C8 08
 (005.919286)  can0  123   [8]  ED 00 36 43 48 E0 A7 FF
 (005.919361)  can0  124   [8]  ED 05 08 71 34 0C D1 08
 (005.929072)  can0  123   [8]  EE 00 36 43 49 6D B7 FF
 (005.929409)  can0  124   [8]  EE 05 08 98 30 0C DA 08
 (005.939013)  can0  123   [8]  EF 00 36 43 49 FA C6 FF
 (005.939271)  can0  124   [8]  EF 05 08 BF 11 0C E3 08
 (005.949004)  can0  123   [8]  F0 00 36 43 4A 87 D7 FF
 (005.949132)  can0  124   [8]  F0 05 08 E6 03 0C EC 08
 (005.958970)  can0  123   [8]  F1 00 37 43 4B 14 E6 FF
 (005.959152)  can0  124   [8]  F1 05 09 0C E6 0C F5 08
 (005.968992)  can0  123   [8]  F2 00 37 43 4B A1 F5 FF
 (005.969004)  can0  124   [8]  F2 05 09 33 DE 0C FE 08
 (005.978687)  can0  123   [8]  F3 00 37 43 4C 2F 05 FF
 (005.978860)  can0  124   [8]  F3 05 09 5A C3 0D 07 08
 (005.988637)  can0  123   [8]  F4 00 38 43 4C BC 14 FF
 (005.988917)  can0  124   [8]  F4 05 09 81 B7 0D 10 08
 (005.998543)  can0  123   [8]  F5 00 38 43 4D 49 25 FF
 (005.998910)  can0  124   [8]  F5 05 09 A8 97 0D 19 08
 (006.008823)  can0  123   [8]  F6 00 38 43 4D D6 34 FF
 (006.008828)  can0  124   [8]  F6 05 09 CF 8F 0D 22 08
 (006.018392)  can0  123   [8]  F7 00 38 43 4E 63 45 FF
 (006.018528)  can0  124   [8]  F7 05 09 F6 6E 0D 2B 08
 (006.028269)  can0  123   [8]  F8 00 39 43 4E F0 54 FF
 (006.028504)  can0  124   [8]  F8 05 0A 1D 5B 0D 34 08
 (006.038236)  can0  123   [8]  F9 00 39 43 4F 7D 63 FF
 (006.038497)  can0  124   [8]  F9 05 0A 44 3C 0D 3D 08
 (006.048101)  can0  123   [8]  FA 00 3A 43 50 0A 73 FF
 (006.048443)  can0  124   [8]  FA 05 0A 6B 33 0D 46 08
 (006.057951)  can0  123   [8]  FB 00 3A 43 50 97 82 FF
 (006.058319)  can0  124   [8]  FB 05 0A 92 10 0D 4F 08
 (006.068125)  can0  123   [8]  FC 00 3A 43 51 24 93 FF
 (006.068138)  can0  124   [8]  FC 05 0A B9 09 0D 58 08
 (006.077809)  can0  123   [8]  FD 00 3B 43 51 B1 A2 FF
 (006.078015)  can0  124   [8]  FD 05 0A DF EC 0D 61 08
 (006.087715)  can0  123   [8]  FE 00 3E 43 52 3E B1 FF
 (006.087984)  can0  124   [8]  FE 05 0B 06 E7 0D 6A 08
 (006.097607)  can0  123   [8]  FF 00 43 43 52 CB C2 FF
 (006.097833)  can0  124   [8]  FF 05 0B 2D CC 0D 73 08
 (006.107574)  can0  123   [8]  00 00 45 43 53 58 D1 FF
 (006.107825)  can0  124   [8]  00 05 0B 54 C3 0D 7C 08
 (006.117472)  can0  123   [8]  01 00 43 43 53 E5 E1 FF
 (006.117713)  can0  124   [8]  01 05 0B 7B A9 0D 85 08
 (006.127382)  can0  123   [8]  02 00 42 43 54 72 F0 FF
 (006.127604)  can0  124   [8]  02 05 0B A2 A8 0D 8E 08
 (006.137311)  can0  123   [8]  03 00 42 43 54 FF FF FF
 (006.137640)  can0  124   [8]  03 05 0B C9 85 0D 97 08
 (006.147221)  can0  123   [8]  04 00 42 43 55 8D 10 FF
 (006.147472)  can0  124   [8]  04 05 0B F0 86 0D A0 08
 (006.157091)  can0  123   [8]  05 00 41 43 56 0A 73 FF
 (006.157307)  can0  124   [8]  05 05 0C 17 68 0D A8 08
 (006.167070)  can0  123   [8]  06 00 40 43 56 A7 2F FF
 (006.167255)  can0  124   [8]  06 05 0C 3E 65 0D B2 08
 (006.176896)  can0  123   [8]  07 00 40 43 57 24 92 FF
 (006.177154)  can0  124   [8]  07 05 0C 65 49 0D BA 08
 (006.186935)  can0  123   [8]  08 00 40 43 57 B1 A2 FF
 (006.187107)  can0  124   [8]  08 05 0C 8C 46 0D C3 08
 (006.196744)  can0  123   [8]  09 00 40 43 58 3E B2 FF
 (006.196992)  can0  124   [8]  09 05 0C B3 2C 0D CC 08
 (006.206774)  can0  123   [8]  0A 00 40 43 58 CB C1 FF
 (006.207006)  can0  124   [8]  0A 05 0C DA 28 0D D5 08
 (006.216796)  can0  123   [8]  0B 00 41 43 59 58 D0 FF
 (006.216916)  can0  124   [8]  0B 05 0D 01 0B 0D DE 08
 (006.226693)  can0  123   [8]  0C 00 41 43 59 E5 E1 FF
 (006.226921)  can0  124   [8]  0C 05 0D 28 03 0D E7 08
 (006.236483)  can0  123   [8]  0D 00 42 43 5A 72 F0 FF
 (006.236887)  can0  124   [8]  0D 05 0D 4E DE 0D F0 08
 (006.246665)  can0  123   [8]  0E 00 42 43 5B 00 00 FF
 (006.246688)  can0  124   [8]  0E 05 0D 75 D9 0D F9 08
 (006.256502)  can0  123   [8]  0F 00 42 43 5B 8D 0F FF
 (006.256900)  can0  124   [8]  0F 05 0D 9C B6 0E 02 08
 (006.266380)  can0  123   [8]  10 00 42 43 5C 0A 73 FF
 (006.266579)  can0  124   [8]  10 05 0D C3 BB 0E 0A 08
 (006.276281)  can0  123   [8]  11 00 43 43 5C 97 83 FF
 (006.276428)  can0  124   [8]  11 05 0D EA A3 0E 13 08
 (006.286196)  can0  123   [8]  12 00 43 43 5D 24 92 FF
 (006.286371)  can0  124   [8]  12 05 0E 11 A2 0E 1C 08
 (006.296174)  can0  123   [8]  13 00 43 43 5D B1 A3 FF
 (006.296407)  can0  124   [8]  13 05 0E 38 83 0E 25 08
 (006.306031)  can0  123   [8]  14 00 43 43 5E 3E B2 FF
 (006.306190)  can0  124   [8]  14 05 0E 5F 83 0E 2E 08
 (006.315859)  can0  123   [8]  15 00 43 43 5E CB C1 FF
 (006.316084)  can0  124   [8]  15 05 0E 86 5F 0E 37 08
 (006.325839)  can0  123   [8]  16 00 44 43 5F 58 D1 FF
 (006.325957)  can0  124   [8]  16 05 0E AD 60 0E 40 08
 (006.335687)  can0  123   [8]  17 00 44 43 5F E5 E0 FF
 (006.335895)  can0  124   [8]  17 05 0E D4 44 0E 49 08
 (006.345662)  can0  123   [8]  18 00 44 43 60 72 F1 FF
 (006.345766)  can0  124   [8]  18 05 0E FB 3E 0E 52 08
 (006.355749)  can0  123   [8]  19 00 45 43 60 F0 54 FF
 (006.355795)  can0  124   [8]  19 05 0F 22 1F 0E 5A 08
 (006.365633)  can0  123   [8]  1A 00 45 43 61 7D 63 FF
 (006.365695)  can0  124   [8]  1A 05 0F 49 20 0E 63 08
 (006.375616)  can0  123   [8]  1B 00 45 43 62 0A 74 FF
 (006.375654)  can0  124   [8]  1B 05 0F 70 00 0E 6C 08
 (006.385508)  can0  123   [8]  1C 00 46 43 62 97 83 FF
 (006.385546)  can0  124   [8]  1C 05 0F 97 00 0E 75 08
 (006.395192)  can0  123   [8]  1D 00 47 43 63 24 92 FF
 (006.395466)  can0  124   [8]  1D 05 0F BD E3 0E 7E 08
 (006.405091)  can0  123   [8]  1E 00 47 43 63 B1 A2 FF
 (006.405297)  can0  124   [8]  1E 05 0F E4 DB 0E 87 08
 (006.414967)  can0  123   [8]  1F 00 48 43 64 3E B1 FF
 (006.415357)  can0  124   [8]  1F 05 10 0B BB 0E 90 08
 (006.424863)  can0  123   [8]  20 00 48 43 64 BC 14 FF
 (006.425199)  can0  124   [8]  20 05 10 32 B7 0E 98 08
 (006.434774)  can0  123   [8]  21 00 49 43 65 49 25 FF
 (006.435097)  can0  124   [8]  21 05 10 59 9A 0E A1 08
 (006.444786)  can0  123   [8]  22 00 4A 43 65 D6 34 FF
 (006.444883)  can0  124   [8]  22 05 10 80 92 0E AA 08
 (006.454672)  can0  123   [8]  23 00 4A 43 66 63 44 FF
 (006.454801)  can0  124   [8]  23 05 10 A7 73 0E B3 08
 (006.464555)  can0  123   [8]  24 00 4A 43 66 F0 54 FF
 (006.464829)  can0  124   [8]  24 05 10 CE 71 0E BC 08
 (006.474537)  can0  123   [8]  25 00 4B 43 67 6D B7 FF
 (006.474748)  can0  124   [8]  25 05 10 F5 59 0E C4 08
 (006.484448)  can0  123   [8]  26 00 4C 43 68 0A 73 FF
 (006.484830)  can0  124   [8]  26 05 11 1C 54 0E CE 08
 (006.494375)  can0  123   [8]  27 00 4F 43 68 87 D6 FF
 (006.494566)  can0  124   [8]  27 05 11 43 36 0E D6 08
 (006.504422)  can0  123   [8]  28 00 50 43 69 14 E5 FF
 (006.504438)  can0  124   [8]  28 05 11 6A 2B 0E DF 08
 (006.514319)  can0  123   [8]  29 00 51 43 69 A1 F6 FF
 (006.514334)  can0  124   [8]  29 05 11 91 0D 0E E8 08
 (006.524127)  can0  123   [8]  2A 00 52 43 6A 2F 05 FF
 (006.524245)  can0  124   [8]  2A 05 11 B8 06 0E F1 08
 (006.533997)  can0  123   [8]  2B 00 52 43 6A BC 15 FF
 (006.534173)  can0  124   [8]  2B 05 11 DE E6 0E FA 08
 (006.543901)  can0  123   [8]  2C 00 53 43 6B 39 78 FF
 (006.544047)  can0  124   [8]  2C 05 12 05 DD 0F 02 08
 (006.553828)  can0  123   [8]  2D 00 54 43 6B C6 88 FF
 (006.553964)  can0  124   [8]  2D 05 12 2C B9 0F 0B 08
 (006.563860)  can0  123   [8]  2E 00 59 43 6C 53 98 FF
 (006.563873)  can0  124   [8]  2E 05 12 53 AF 0F 14 08
 (006.573669)  can0  123   [8]  2F 00 5D 43 6C E0 A7 FF
 (006.573779)  can0  124   [8]  2F 05 12 7A 94 0F 1D 08
 (006.583637)  can0  123   [8]  30 00 5F 43 6D 6D B6 FF
 (006.583648)  can0  124   [8]  30 05 12 A1 8F 0F 26 08
 (006.593712)  can0  123   [8]  31 00 5F 43 6D EB 1B FF
 (006.594018)  can0  124   [8]  31 05 12 C8 6E 0F 2E 08
 (006.603364)  can0  123   [8]  32 00 5E 43 6E 78 2A FF
 (006.603448)  can0  124   [8]  32 05 12 EF 6F 0F 37 08
 (006.613858)  can0  123   [8]  33 00 5F 43 6F 05 39 FF
 (006.613871)  can0  124   [8]  33 05 13 16 52 0F 40 08
 (006.623290)  can0  123   [8]  34 00 60 43 6F 92 49 FF
 (006.623411)  can0  124   [8]  34 05 13 3D 53 0F 49 08
 (006.633218)  can0  123   [8]  35 00 60 43 70 1F 59 FF
 (006.633444)  can0  124   [8]  35 05 13 64 37 0F 52 08
 (006.643071)  can0  123   [8]  36 00 60 43 70 9C BC FF
 (006.643251)  can0  124   [8]  36 05 13 8B 2D 0F 5A 08
 (006.652852)  can0  123   [8]  37 00 62 43 71 29 CC FF
 (006.653075)  can0  124   [8]  37 05 13 B2 11 0F 63 08
 (006.662785)  can0  123   [8]  38 00 63 43 71 B6 DB FF
 (006.663025)  can0  124   [8]  38 05 13 D9 0E 0F 6C 08
 (006.672659)  can0  123   [8]  39 00 6B 43 72 43 EC FF
 (006.672875)  can0  124   [8]  39 05 13 FF D9 0F 75 08
 (006.682629)  can0  123   [8]  3A 00 8D 43 72 C1 4F FF
 (006.682867)  can0  124   [8]  3A 05 14 26 DE 0F 7D 08
 (006.692554)  can0  123   [8]  3B 00 D1 43 73 4E 5E FF
 (006.692773)  can0  124   [8]  3B 05 14 4D C1 0F 86 08
 (006.702458)  can0  123   [8]  3C 00 F1 43 73 DB 6E FF
 (006.702658)  can0  124   [8]  3C 05 14 74 B6 0F 8F 08
 (006.712367)  can0  123   [8]  3D 01 01 43 74 58 D1 FF
 (006.712588)  can0  124   [8]  3D 05 14 9B A3 0F 97 08
 (006.722310)  can0  123   [8]  3E 01 09 43 74 E5 E0 FF
 (006.722557)  can0  124   [8]  3E 05 14 C2 94 0F A0 08
 (006.732216)  can0  123   [8]  3F 01 0D 43 75 72 F1 FF
 (006.732451)  can0  124   [8]  3F 05 14 E9 82 0F A9 08
 (006.742212)  can0  123   [8]  40 01 0E 43 75 F0 54 FF
 (006.742319)  can0  124   [8]  40 05 15 10 74 0F B1 08
 (006.752093)  can0  123   [8]  41 01 0C 43 76 7D 63 FF
 (006.752291)  can0  124   [8]  41 05 15 37 5D 0F BA 08
 (006.761985)  can0  123   [8]  42 01 0C 43 76 FA C6 FF
 (006.762200)  can0  124   [8]  42 05 15 5E 48 0F C2 08
 (006.771889)  can0  123   [8]  43 01 0A 43 77 87 D7 FF
 (006.772170)  can0  124   [8]  43 05 15 85 2D 0F CB 08
 (006.781798)  can0  123   [8]  44 01 09 43 78 14 E6 FF
 (006.782006)  can0  124   [8]  44 05 15 AC 21 0F D4 08
 (006.791794)  can0  123   [8]  45 01 09 43 78 92 49 FF
 (006.791995)  can0  124   [8]  45 05 15 D3 0C 0F DC 08
 (006.801604)  can0  123   [8]  46 01 08 43 79 1F 59 FF
 (006.801799)  can0  124   [8]  46 05 15 FA 02 0F E5 08
 (006.811554)  can0  123   [8]  47 01 06 43 79 9C BC FF
 (006.811743)  can0  124   [8]  47 05 16 20 E7 0F ED 08
 (006.821439)  can0  123   [8]  48 01 07 43 7A 29 CC FF
 (006.821773)  can0  124   [8]  48 05 16 47 DD 0F F6 08
 (006.831650)  can0  123   [8]  49 01 04 43 7A A7 2F FF
 (006.831671)  can0  124   [8]  49 05 16 6E C3 0F FE 08
 (006.841570)  can0  123   [8]  4A 01 01 43 7B 34 3F FF
 (006.841586)  can0  124   [8]  4A 05 16 95 BC 10 07 08
 (006.851436)  can0  123   [8]  4B 01 00 43 7B C1 4E FF
 (006.851454)  can0  124   [8]  4B 05 16 BC A3 10 10 08
 (006.861192)  can0  123   [8]  4C 00 FE 43 7C 3E B1 FF
 (006.861347)  can0  124   [8]  4C 05 16 E3 98 10 18 08
 (006.871069)  can0  123   [8]  4D 00 FD 43 7C CB C2 FF
 (006.871255)  can0  124   [8]  4D 05 17 0A 7F 10 21 08
 (006.880929)  can0  123   [8]  4E 00 FB 43 7D 49 25 FF
 (006.881190)  can0  124   [8]  4E 05 17 31 75 10 29 08
 (006.890781)  can0  123   [8]  4F 00 FC 43 7D D6 34 FF
 (006.891019)  can0  124   [8]  4F 05 17 58 5E 10 32 08
 (006.900726)  can0  123   [8]  50 00 FB 43 7E 53 97 FF
 (006.901001)  can0  124   [8]  50 05 17 7F 54 10 3A 08
 (006.910601)  can0  123   [8]  51 00 FD 43 7E E0 A7 FF
 (006.910840)  can0  124   [8]  51 05 17 A6 40 10 43 08
 (006.920563)  can0  123   [8]  52 00 FA 43 7F 5E 0B FF
 (006.920759)  can0  124   [8]  52 05 17 CD 37 10 4B 08
 (006.930423)  can0  123   [8]  53 00 F9 43 7F EB 1A FF
 (006.930712)  can0  124   [8]  53 05 17 F4 21 10 54 08
 (006.940322)  can0  123   [8]  54 00 F7 43 80 34 3E FF
 (006.940568)  can0  124   [8]  54 05 18 1B 17 10 5C 08
 (006.950237)  can0  123   [8]  55 00 F6 43 80 7A C7 FF
 (006.950497)  can0  124   [8]  55 05 18 42 01 10 65 08
 (006.960188)  can0  123   [8]  56 00 F4 43 80 C1 4E FF
 (006.960406)  can0  124   [8]  56 05 18 68 FC 10 6E 08
 (006.970109)  can0  123   [8]  57 00 F1 43 81 00 00 FF
 (006.970301)  can0  124   [8]  57 05 18 8F DA 10 76 08
 (006.979998)  can0  123   [8]  58 00 EF 43 81 3E B2 FF
 (006.980220)  can0  124   [8]  58 05 18 B6 CA 10 7E 08
 (006.989888)  can0  123   [8]  59 00 EC 43 81 85 39 FF
 (006.990121)  can0  124   [8]  59 05 18 DD B6 10 87 08
 (006.999826)  can0  123   [8]  5A 00 EC 43 81 CB C1 FF
 (007.000075)  can0  124   [8]  5A 05 19 04 B1 10 90 08
 (007.009759)  can0  123   [8]  5B 00 DA 43 82 0A 73 FF
 (007.009944)  can0  124   [8]  5B 05 19 2B 8F 10 98 08
 (007.019668)  can0  123   [8]  5C 00 B9 43 82 49 25 FF
 (007.019878)  can0  124   [8]  5C 05 19 52 8A 10 A0 08
 (007.029585)  can0  123   [8]  5D 00 A6 43 82 8F AC FF
 (007.029776)  can0  124   [8]  5D 05 19 79 69 10 A9 08
 (007.039539)  can0  123   [8]  5E 00 A6 43 82 D6 35 FF
 (007.039802)  can0  124   [8]  5E 05 19 A0 64 10 B2 08
 (007.049493)  can0  123   [8]  5F 00 AD 43 83 14 E6 FF
 (007.049637)  can0  124   [8]  5F 05 19 C7 47 10 BA 08
 (007.059429)  can0  123   [8]  60 00 B3 43 83 5B 6E FF
 (007.059573)  can0  124   [8]  60 05 19 EE 41 10 C3 08
 (007.069241)  can0  123   [8]  61 00 B7 43 83 9A 1F FF
 (007.069499)  can0  124   [8]  61 05 1A 15 21 10 CB 08
 (007.079535)  can0  123   [8]  62 00 B8 43 83 E0 A7 FF
 (007.079550)  can0  124   [8]  62 05 1A 3C 1D 10 D4 08
 (007.089057)  can0  123   [8]  63 00 B9 43 84 1F 59 FF
 (007.089280)  can0  124   [8]  63 05 1A 62 FA 10 DC 08
 (007.099137)  can0  123   [8]  64 00 B8 43 84 65 E0 FF
 (007.099211)  can0  124   [8]  64 05 1A 89 F4 10 E5 08
 (007.108951)  can0  123   [8]  65 00 B7 43 84 A4 92 FF
 (007.109203)  can0  124   [8]  65 05 1A B0 CF 10 ED 08
 (007.118824)  can0  123   [8]  66 00 B7 43 84 EB 1A FF
 (007.119031)  can0  124   [8]  66 05 1A D7 CA 10 F6 08
 (007.128883)  can0  123   [8]  67 00 B7 43 85 29 CC FF
 (007.128993)  can0  124   [8]  67 05 1A FE AB 10 FE 08
 (007.138827)  can0  123   [8]  68 00 B8 43 85 70 53 FF
 (007.139090)  can0  124   [8]  68 05 1B 25 A6 11 07 08
 (007.148691)  can0  123   [8]  69 00 B8 43 85 AF 05 FF
 (007.148832)  can0  124   [8]  69 05 1B 4C 84 11 0F 08
 (007.158618)  can0  123   [8]  6A 00 B8 43 85 F5 8D FF
 (007.158814)  can0  124   [8]  6A 05 1B 73 7F 11 18 08
 (007.168457)  can0  123   [8]  6B 00 B7 43 86 34 3F FF
 (007.168651)  can0  124   [8]  6B 05 1B 9A 5F 11 20 08
 (007.178446)  can0  123   [8]  6C 00 B5 43 86 72 F0 FF
 (007.178575)  can0  124   [8]  6C 05 1B C1 5B 11 28 08
 (007.188331)  can0  123   [8]  6D 00 B0 43 86 B9 78 FF
 (007.188550)  can0  124   [8]  6D 05 1B E8 3F 11 31 08
 (007.198460)  can0  123   [8]  6E 00 99 43 87 00 00 FF
 (007.198486)  can0  124   [8]  6E 05 1C 0F 33 11 3A 08
 (007.208181)  can0  123   [8]  6F 00 72 43 87 3E B2 FF
 (007.208885)  can0  124   [8]  6F 05 1C 36 12 11 42 08
 (007.218897)  can0  123   [8]  70 00 70 43 87 7D 63 FF
 (007.218927)  can0  124   [8]  70 05 1C 5D 0F 11 4A 08
 (007.228099)  can0  123   [8]  71 00 6E 43 87 C3 EB FF
 (007.228305)  can0  124   [8]  71 05 1C 83 F0 11 53 08
 (007.238133)  can0  123   [8]  72 00 6E 43 88 02 9D FF
 (007.238164)  can0  124   [8]  72 05 1C AA E8 11 5B 08
 (007.247826)  can0  123   [8]  73 00 6E 43 88 49 24 FF
 (007.247956)  can0  124   [8]  73 05 1C D1 C8 11 64 08
 (007.257931)  can0  123   [8]  74 00 6E 43 88 87 D6 FF
 (007.257952)  can0  124   [8]  74 05 1C F8 BF 11 6C 08
 (007.267729)  can0  123   [8]  75 00 6F 43 88 C6 88 FF
 (007.267834)  can0  124   [8]  75 05 1D 1F A1 11 74 08
 (007.277478)  can0  123   [8]  76 00 70 43 89 0D 10 FF
 (007.277731)  can0  124   [8]  76 05 1D 46 9E 11 7D 08
 (007.287482)  can0  123   [8]  77 00 70 43 89 4B C1 FF
 (007.287570)  can0  124   [8]  77 05 1D 6D 7E 11 85 08
 (007.297385)  can0  123   [8]  78 00 6F 43 89 92 49 FF
 (007.297509)  can0  124   [8]  78 05 1D 94 7A 11 8E 08
 (007.307280)  can0  123   [8]  79 00 6D 43 89 D0 FB FF
 (007.307405)  can0  124   [8]  79 05 1D BB 5E 11 96 08
 (007.317209)  can0  123   [8]  7A 00 6D 43 8A 0F AD FF
 (007.317336)  can0  124   [8]  7A 05 1D E2 5B 11 9E 08
 (007.327112)  can0  123   [8]  7B 00 6D 43 8A 56 34 FF
 (007.327271)  can0  124   [8]  7B 05 1E 09 3E 11 A7 08
 (007.337046)  can0  123   [8]  7C 00 6D 43 8A 94 E6 FF
 (007.337239)  can0  124   [8]  7C 05 1E 30 3F 11 AF 08
 (007.346959)  can0  123   [8]  7D 00 6D 43 8A DB 6E FF
 (007.347076)  can0  124   [8]  7D 05 1E 57 22 11 B8 08
 (007.356774)  can0  123   [8]  7E 00 6C 43 8B 1A 1F FF
 (007.357009)  can0  124   [8]  7E 05 1E 7E 21 11 C0 08
 (007.366743)  can0  123   [8]  7F 00 68 43 8B 58 D1 FF
 (007.366876)  can0  124   [8]  7F 05 1E A5 05 11 C8 08
 (007.376679)  can0  123   [8]  80 00 65 43 8B 9F 58 FF
 (007.376841)  can0  124   [8]  80 05 1E CC 04 11 D1 08
 (007.386609)  can0  123   [8]  81 00 61 43 8B DE 0B FF
 (007.386807)  can0  124   [8]  81 05 1E F2 FF 11 D9 08
 (007.396508)  can0  123   [8]  82 00 5C 43 8C 24 92 FF
 (007.396715)  can0  124   [8]  82 05 1F 1A 03 11 E2 08
 (007.406421)  can0  123   [8]  83 00 58 43 8C 63 44 FF
 (007.406602)  can0  124   [8]  83 05 1F 40 E4 11 EA 08
 (007.416336)  can0  123   [8]  84 00 57 43 8C A1 F5 FF
 (007.416512)  can0  124   [8]  84 05 1F 67 E2 11 F2 08
 (007.426210)  can0  123   [8]  85 00 53 43 8C E8 7E FF
 (007.426447)  can0  124   [8]  85 05 1F 8E C7 11 FB 08
 (007.436115)  can0  123   [8]  86 00 53 43 8D 27 2F FF
 (007.436318)  can0  124   [8]  86 05 1F B5 BF 12 03 08
 (007.446061)  can0  123   [8]  87 00 55 43 8D 6D B7 FF
 (007.446288)  can0  124   [8]  87 05 1F DC A1 12 0C 08
 (007.455948)  can0  123   [8]  88 00 56 43 8D AC 68 FF
 (007.456232)  can0  124   [8]  88 05 20 03 9E 12 14 08
 (007.465922)  can0  123   [8]  89 00 57 43 8D F2 F0 FF
 (007.466064)  can0  124   [8]  89 05 20 2A 85 12 1D 08
 (007.475794)  can0  123   [8]  8A 00 5B 43 8E 31 A2 FF
 (007.475944)  can0  124   [8]  8A 05 20 51 80 12 25 08
 (007.485716)  can0  123   [8]  8B 00 62 43 8E 78 2A FF
 (007.485855)  can0  124   [8]  8B 05 20 78 64 12 2E 08
 (007.495633)  can0  123   [8]  8C 00 67 43 8E B6 DC FF
 (007.495783)  can0  124   [8]  8C 05 20 9F 4A 12 36 08
 (007.505552)  can0  123   [8]  8D 00 67 43 8E FD 63 FF
 (007.505775)  can0  124   [8]  8D 05 20 C6 32 12 3F 08
 (007.515560)  can0  123   [8]  8E 00 66 43 8F 43 EB FF
 (007.515688)  can0  124   [8]  8E 05 20 ED 31 12 48 08
 (007.525514)  can0  123   [8]  8F 00 60 43 8F 82 9D FF
 (007.525559)  can0  124   [8]  8F 05 21 14 28 12 50 08
 (007.535504)  can0  123   [8]  90 00 5A 43 8F C1 4F FF
 (007.535518)  can0  124   [8]  90 05 21 3B 24 12 58 08
 (007.545173)  can0  123   [8]  91 00 58 43 90 07 D6 FF
 (007.545357)  can0  124   [8]  91 05 21 62 09 12 61 08
 (007.555081)  can0  123   [8]  92 00 58 43 90 4E 5E FF
 (007.555283)  can0  124   [8]  92 05 21 89 06 12 6A 08
 (007.564988)  can0  123   [8]  93 00 58 43 90 8D 10 FF
 (007.565227)  can0  124   [8]  93 05 21 AF E7 12 72 08
 (007.575007)  can0  123   [8]  94 00 51 43 90 CB C1 FF
 (007.575124)  can0  124   [8]  94 05 21 D6 E5 12 7A 08
 (007.584817)  can0  123   [8]  95 00 43 43 91 12 49 FF
 (007.584979)  can0  124   [8]  95 05 21 FD C6 12 83 08
 (007.594735)  can0  123   [8]  96 00 37 43 91 50 FB FF
 (007.595079)  can0  124   [8]  96 05 22 24 C3 12 8B 08
 (007.605203)  can0  123   [8]  97 00 33 43 91 97 83 FF
 (007.605223)  can0  124   [8]  97 05 22 4B A4 12 94 08
 (007.614587)  can0  123   [8]  98 00 31 43 91 D6 34 FF
 (007.614821)  can0  124   [8]  98 05 22 72 A1 12 9C 08
 (007.624517)  can0  123   [8]  99 00 30 43 92 1C BC FF
 (007.624717)  can0  124   [8]  99 05 22 99 83 12 A5 08
 (007.634410)  can0  123   [8]  9A 00 2E 43 92 5B 6D FF
 (007.634671)  can0  124   [8]  9A 05 22 C0 7C 12 AD 08
 (007.644532)  can0  123   [8]  9B 00 2D 43 92 A1 F6 FF
 (007.644549)  can0  124   [8]  9B 05 22 E7 5E 12 B6 08
 (007.654304)  can0  123   [8]  9C 00 2C 43 92 E0 A7 FF
 (007.654577)  can0  124   [8]  9C 05 23 0E 59 12 BE 08
 (007.664229)  can0  123   [8]  9D 00 2C 43 93 27 2F FF
 (007.664430)  can0  124   [8]  9D 05 23 35 37 12 C7 08
 (007.674298)  can0  123   [8]  9E 00 2B 43 93 65 E1 FF
 (007.674314)  can0  124   [8]  9E 05 23 5C 35 12 CF 08
 (007.683951)  can0  123   [8]  9F 00 2B 43 93 AC 69 FF
 (007.684194)  can0  124   [8]  9F 05 23 83 11 12 D8 08
 (007.693926)  can0  123   [8]  A0 00 2B 43 93 EB 1A FF
 (007.694085)  can0  124   [8]  A0 05 23 AA 07 12 E0 08
 (007.703867)  can0  123   [8]  A1 00 2B 43 94 29 CC FF
 (007.704037)  can0  124   [8]  A1 05 23 D0 E8 12 E8 08
 (007.713720)  can0  123   [8]  A2 00 2B 43 94 70 54 FF
 (007.713952)  can0  124   [8]  A2 05 23 F7 DE 12 F1 08
 (007.723694)  can0  123   [8]  A3 00 2B 43 94 B6 DB FF
 (007.723848)  can0  124   [8]  A3 05 24 1E C2 12 FA 08
 (007.733658)  can0  123   [8]  A4 00 2B 43 94 F5 8D FF
 (007.733797)  can0  124   [8]  A4 05 24 45 BD 13 02 08
 (007.743497)  can0  123   [8]  A5 00 2C 43 95 34 3E FF
 (007.743655)  can0  124   [8]  A5 05 24 6C A7 13 0A 08
 (007.753436)  can0  123   [8]  A6 00 2C 43 95 7A C7 FF
 (007.753594)  can0  124   [8]  A6 05 24 93 A4 13 13 08
 (007.763352)  can0  123   [8]  A7 00 2C 43 95 B9 78 FF
 (007.763540)  can0  124   [8]  A7 05 24 BA 87 13 1B 08
 (007.773291)  can0  123   [8]  A8 00 2C 43 96 00 00 FF
 (007.773445)  can0  124   [8]  A8 05 24 E1 87 13 24 08
 (007.783156)  can0  123   [8]  A9 00 2C 43 96 3E B1 FF
 (007.783300)  can0  124   [8]  A9 05 25 08 6B 13 2C 08
 (007.793241)  can0  123   [8]  AA 00 2C 43 96 85 3A FF
 (007.793261)  can0  124   [8]  AA 05 25 2F 70 13 35 08
 (007.803011)  can0  123   [8]  AB 00 2C 43 96 C3 EB FF
 (007.803138)  can0  124   [8]  AB 05 25 56 52 13 3D 08
 (007.813051)  can0  123   [8]  AC 00 2C 43 97 0A 73 FF
 (007.813077)  can0  124   [8]  AC 05 25 7D 57 13 46 08
 (007.822747)  can0  123   [8]  AD 00 2C 43 97 49 25 FF
 (007.823135)  can0  124   [8]  AD 05 25 A4 40 13 4E 08
 (007.832769)  can0  123   [8]  AE 00 2C 43 97 87 D6 FF
 (007.832889)  can0  124   [8]  AE 05 25 CB 41 13 56 08
 (007.842670)  can0  123   [8]  AF 00 2C 43 97 CE 5E FF
 (007.842809)  can0  124   [8]  AF 05 25 F2 28 13 5F 08
 (007.852646)  can0  123   [8]  B0 00 2C 43 98 14 E6 FF
 (007.852755)  can0  124   [8]  B0 05 26 19 24 13 68 08
 (007.862471)  can0  123   [8]  B1 00 2C 43 98 53 98 FF
 (007.862641)  can0  124   [8]  B1 05 26 40 0D 13 70 08
 (007.872358)  can0  123   [8]  B2 00 2D 43 98 92 49 FF
 (007.872583)  can0  124   [8]  B2 05 26 67 09 13 78 08
 (007.882266)  can0  123   [8]  B3 00 2D 43 98 D8 D1 FF
 (007.882409)  can0  124   [8]  B3 05 26 8D EB 13 81 08
 (007.892158)  can0  123   [8]  B4 00 2D 43 99 17 82 FF
 (007.892471)  can0  124   [8]  B4 05 26 B4 EA 13 89 08
 (007.902085)  can0  123   [8]  B5 00 2D 43 99 5E 0B FF
 (007.902252)  can0  124   [8]  B5 05 26 DB CC 13 92 08
 (007.912044)  can0  123   [8]  B6 00 2D 43 99 9C BC FF
 (007.912210)  can0  124   [8]  B6 05 27 02 C8 13 9A 08
 (007.922035)  can0  123   [8]  B7 00 2D 43 99 DB 6E FF
 (007.922088)  can0  124   [8]  B7 05 27 29 AF 13 A2 08
 (007.931801)  can0  123   [8]  B8 00 2D 43 9A 21 F6 FF
 (007.932009)  can0  124   [8]  B8 05 27 50 AA 13 AB 08
 (007.941726)  can0  123   [8]  B9 00 2D 43 9A 60 A7 FF
 (007.941903)  can0  124   [8]  B9 05 27 77 95 13 B3 08
 (007.951636)  can0  123   [8]  BA 00 2D 43 9A A7 2F FF
 (007.951831)  can0  124   [8]  BA 05 27 9E 8E 13 BC 08
 (007.961614)  can0  123   [8]  BB 00 2E 43 9A E5 E0 FF
 (007.961764)  can0  124   [8]  BB 05 27 C5 6E 13 C4 08
 (007.971550)  can0  123   [8]  BC 00 2E 43 9B 24 92 FF
 (007.971670)  can0  124   [8]  BC 05 27 EC 69 13 CC 08
 (007.981516)  can0  123   [8]  BD 00 2E 43 9B 6B 1A FF
 (007.981624)  can0  124   [8]  BD 05 28 13 4A 13 D5 08
 (007.991338)  can0  123   [8]  BE 00 2E 43 9B A9 CC FF
 (007.991649)  can0  124   [8]  BE 05 28 3A 4F 13 DD 08
 (008.001277)  can0  123   [8]  BF 00 2E 43 9B F0 53 FF
 (008.001461)  can0  124   [8]  BF 05 28 61 34 13 E6 08
 (008.011216)  can0  123   [8]  C0 00 2F 43 9C 2F 05 FF
 (008.011390)  can0  124   [8]  C0 05 28 88 31 13 EE 08
 (008.021131)  can0  123   [8]  C1 00 2F 43 9C 6D B7 FF
 (008.021318)  can0  124   [8]  C1 05 28 AF 16 13 F6 08
 (008.031125)  can0  123   [8]  C2 00 2F 43 9C B4 3F FF
 (008.031208)  can0  124   [8]  C2 05 28 D6 16 13 FF 08
 (008.040896)  can0  123   [8]  C3 00 2F 43 9C F2 F0 FF
 (008.041141)  can0  124   [8]  C3 05 28 FC FD 14 07 08
 (008.050904)  can0  123   [8]  C4 00 2F 43 9D 39 78 FF
 (008.051095)  can0  124   [8]  C4 05 29 23 FB 14 10 08
 (008.060810)  can0  123   [8]  C5 00 2F 43 9D 78 2A FF
 (008.060967)  can0  124   [8]  C5 05 29 4A D9 14 18 08
 (008.070667)  can0  123   [8]  C6 00 2F 43 9D B6 DC FF
 (008.070826)  can0  124   [8]  C6 05 29 71 D7 14 20 08
 (008.080571)  can0  123   [8]  C7 00 30 43 9D FD 63 FF
 (008.080749)  can0  124   [8]  C7 05 29 98 BD 14 29 08
 (008.090477)  can0  123   [8]  C8 00 30 43 9E 3C 15 FF
 (008.090731)  can0  124   [8]  C8 05 29 BF BC 14 31 08
 (008.100360)  can0  123   [8]  C9 00 30 43 9E 82 9D FF
 (008.100613)  can0  124   [8]  C9 05 29 E6 98 14 3A 08
 (008.110310)  can0  123   [8]  CA 00 30 43 9E C1 4E FF
 (008.110468)  can0  124   [8]  CA 05 2A 0D 92 14 42 08
 (008.120226)  can0  123   [8]  CB 00 30 43 9F 00 00 FF
 (008.120397)  can0  124   [8]  CB 05 2A 34 7C 14 4A 08
 (008.130217)  can0  123   [8]  CC 00 31 43 9F 3E B1 FF
 (008.130351)  can0  124   [8]  CC 05 2A 5B 76 14 52 08
 (008.140058)  can0  123   [8]  CD 00 31 43 9F 85 3A FF
 (008.140250)  can0  124   [8]  CD 05 2A 82 58 14 5B 08
 (008.150192)  can0  123   [8]  CE 00 31 43 9F C3 EB FF
 (008.150209)  can0  124   [8]  CE 05 2A A9 56 14 63 08
 (008.159906)  can0  123   [8]  CF 00 31 43 A0 0A 73 FF
 (008.160055)  can0  124   [8]  CF 05 2A D0 38 14 6C 08
 (008.169799)  can0  123   [8]  D0 00 31 43 A0 49 24 FF
 (008.170073)  can0  124   [8]  D0 05 2A F7 32 14 74 08
 (008.179775)  can0  123   [8]  D1 00 32 43 A0 87 D7 FF
 (008.179905)  can0  124   [8]  D1 05 2B 1E 15 14 7C 08
 (008.189707)  can0  123   [8]  D2 00 32 43 A0 CE 5E FF
 (008.189796)  can0  124   [8]  D2 05 2B 45 0F 14 85 08
 (008.199577)  can0  123   [8]  D3 00 32 43 A1 0D 10 FF
 (008.199699)  can0  124   [8]  D3 05 2B 6B F2 14 8D 08
 (008.209478)  can0  123   [8]  D4 00 32 43 A1 53 98 FF
 (008.209640)  can0  124   [8]  D4 05 2B 92 E3 14 96 08
 (008.219391)  can0  123   [8]  D5 00 33 43 A1 92 49 FF
 (008.219550)  can0  124   [8]  D5 05 2B B9 C8 14 9E 08
 (008.229284)  can0  123   [8]  D6 00 33 43 A1 D8 D1 FF
 (008.229649)  can0  124   [8]  D6 05 2B E0 BA 14 A7 08
 (008.239280)  can0  123   [8]  D7 00 33 43 A2 17 82 FF
 (008.239386)  can0  124   [8]  D7 05 2C 07 9D 14 AF 08
 (008.249288)  can0  123   [8]  D8 00 33 43 A2 5E 0B FF
 (008.249311)  can0  124   [8]  D8 05 2C 2E 93 14 B8 08
 (008.259092)  can0  123   [8]  D9 00 34 43 A2 9C BC FF
 (008.259249)  can0  124   [8]  D9 05 2C 55 72 14 C0 08
 (008.268998)  can0  123   [8]  DA 00 34 43 A2 DB 6E FF
 (008.269190)  can0  124   [8]  DA 05 2C 7C 65 14 C8 08
 (008.278826)  can0  123   [8]  DB 00 33 43 A3 21 F5 FF
 (008.279076)  can0  124   [8]  DB 05 2C A3 48 14 D1 08
 (008.288860)  can0  123   [8]  DC 00 33 43 A3 60 A7 FF
 (008.288956)  can0  124   [8]  DC 05 2C CA 43 14 D9 08
 (008.298789)  can0  123   [8]  DD 00 34 43 A3 A7 2F FF
 (008.298875)  can0  124   [8]  DD 05 2C F1 23 14 E2 08
 (008.308675)  can0  123   [8]  DE 00 34 43 A3 E5 E1 FF
 (008.308795)  can0  124   [8]  DE 05 2D 18 16 14 EA 08
 (008.318538)  can0  123   [8]  DF 00 35 43 A4 24 92 FF
 (008.318710)  can0  124   [8]  DF 05 2D 3F 00 14 F2 08
 (008.328438)  can0  123   [8]  E0 00 35 43 A4 6B 1A FF
 (008.328638)  can0  124   [8]  E0 05 2D 65 F9 14 FB 08
 (008.338328)  can0  123   [8]  E1 00 36 43 A4 A9 CC FF
 (008.338534)  can0  124   [8]  E1 05 2D 8C D9 15 03 08
 (008.348300)  can0  123   [8]  E2 00 37 43 A4 F0 54 FF
 (008.348464)  can0  124   [8]  E2 05 2D B3 D3 15 0C 08
 (008.358270)  can0  123   [8]  E3 00 38 43 A5 2F 05 FF
 (008.358432)  can0  124   [8]  E3 05 2D DA B0 15 14 08
 (008.368141)  can0  123   [8]  E4 00 38 43 A5 6D B7 FF
 (008.368281)  can0  124   [8]  E4 05 2E 01 A7 15 1C 08
 (008.378032)  can0  123   [8]  E5 00 38 43 A5 B4 3F FF
 (008.378210)  can0  124   [8]  E5 05 2E 28 8C 15 25 08
 (008.387983)  can0  123   [8]  E6 00 39 43 A5 F2 F0 FF
 (008.388157)  can0  124   [8]  E6 05 2E 4F 83 15 2D 08
 (008.397843)  can0  123   [8]  E7 00 39 43 A6 39 78 FF
 (008.397996)  can0  124   [8]  E7 05 2E 76 66 15 36 08
 (008.407806)  can0  123   [8]  E8 00 3A 43 A6 78 2A FF
 (008.407940)  can0  124   [8]  E8 05 2E 9D 60 15 3E 08
 (008.417721)  can0  123   [8]  E9 00 3A 43 A6 B6 DC FF
 (008.417854)  can0  124   [8]  E9 05 2E C4 3A 15 46 08
 (008.427604)  can0  123   [8]  EA 00 3A 43 A6 F5 8D FF
 (008.427791)  can0  124   [8]  EA 05 2E EB 34 15 4E 08
 (008.437446)  can0  123   [8]  EB 00 37 43 A7 3C 15 FF
 (008.437733)  can0  124   [8]  EB 05 2F 12 18 15 57 08
 (008.447471)  can0  123   [8]  EC 00 36 43 A7 7A C6 FF
 (008.447620)  can0  124   [8]  EC 05 2F 39 11 15 5F 08
 (008.457338)  can0  123   [8]  ED 00 3D 43 A7 B9 78 FF
 (008.457528)  can0  124   [8]  ED 05 2F 5F FB 15 67 08
 (008.467217)  can0  123   [8]  EE 00 42 43 A8 00 00 FF
 (008.467474)  can0  124   [8]  EE 05 2F 86 F6 15 70 08
 (008.477199)  can0  123   [8]  EF 00 41 43 A8 3E B2 FF
 (008.477319)  can0  124   [8]  EF 05 2F AD D0 15 78 08
 (008.487090)  can0  123   [8]  F0 00 41 43 A8 7D 63 FF
 (008.487254)  can0  124   [8]  F0 05 2F D4 C7 15 80 08
 (008.496995)  can0  123   [8]  F1 00 41 43 A8 BC 15 FF
 (008.497178)  can0  124   [8]  F1 05 2F FB AE 15 88 08
 (008.507013)  can0  123   [8]  F2 00 42 43 A9 02 9D FF
 (008.507129)  can0  124   [8]  F2 05 30 22 AA 15 91 08
 (008.516809)  can0  123   [8]  F3 00 42 43 A9 41 4E FF
 (008.516968)  can0  124   [8]  F3 05 30 49 8E 15 99 08
 (008.526711)  can0  123   [8]  F4 00 43 43 A9 80 00 FF
 (008.526929)  can0  124   [8]  F4 05 30 70 83 15 A1 08
 (008.536648)  can0  123   [8]  F5 00 43 43 A9 C6 88 FF
 (008.536834)  can0  124   [8]  F5 05 30 97 65 15 AA 08
 (008.546586)  can0  123   [8]  F6 00 42 43 AA 05 3A FF
 (008.546777)  can0  124   [8]  F6 05 30 BE 5D 15 B2 08
 (008.556454)  can0  123   [8]  F7 00 42 43 AA 43 EB FF
 (008.556633)  can0  124   [8]  F7 05 30 E5 43 15 BA 08
 (008.566458)  can0  123   [8]  F8 00 42 43 AA 8A 73 FF
 (008.566605)  can0  124   [8]  F8 05 31 0C 43 15 C3 08
 (008.576332)  can0  123   [8]  F9 00 42 43 AA C9 24 FF
 (008.576476)  can0  124   [8]  F9 05 31 33 24 15 CB 08
 (008.586273)  can0  123   [8]  FA 00 42 43 AB 07 D6 FF
 (008.586429)  can0  124   [8]  FA 05 31 5A 20 15 D3 08
 (008.596214)  can0  123   [8]  FB 00 42 43 AB 4E 5E FF
 (008.596320)  can0  124   [8]  FB 05 31 81 03 15 DC 08
 (008.606117)  can0  123   [8]  FC 00 42 43 AB 8D 10 FF
 (008.606234)  can0  124   [8]  FC 05 31 A8 00 15 E4 08
 (008.615927)  can0  123   [8]  FD 00 41 43 AB CB C1 FF
 (008.616218)  can0  124   [8]  FD 05 31 CE E2 15 EC 08
 (008.625843)  can0  123   [8]  FE 00 41 43 AC 12 49 FF
 (008.626097)  can0  124   [8]  FE 05 31 F5 DF 15 F5 08
 (008.635766)  can0  123   [8]  FF 00 41 43 AC 50 FB FF
 (008.635925)  can0  124   [8]  FF 05 32 1C BB 15 FD 08
 (008.645776)  can0  123   [8]  00 00 41 43 AC 97 83 FF
 (008.645898)  can0  124   [8]  00 05 32 43 BD 16 06 08
 (008.655631)  can0  123   [8]  01 00 40 43 AC D6 34 FF
 (008.655759)  can0  124   [8]  01 05 32 6A 9E 16 0E 08
 (008.665593)  can0  123   [8]  02 00 40 43 AD 14 E6 FF
 (008.665696)  can0  124   [8]  02 05 32 91 9F 16 16 08
 (008.675563)  can0  123   [8]  03 00 40 43 AD 53 98 FF
 (008.675582)  can0  124   [8]  03 05 32 B8 82 16 1E 08
 (008.685453)  can0  123   [8]  04 00 40 43 AD 9A 1F FF
 (008.685590)  can0  124   [8]  04 05 32 DF 79 16 27 08
 (008.695824)  can0  123   [8]  05 00 40 43 AD D8 D1 FF
 (008.696123)  can0  124   [8]  05 05 33 06 64 16 2F 08
 (008.705179)  can0  123   [8]  06 00 40 43 AE 1F 59 FF
 (008.705379)  can0  124   [8]  06 05 33 2D 5E 16 38 08
 (008.715094)  can0  123   [8]  07 00 40 43 AE 5E 0B FF
 (008.715255)  can0  124   [8]  07 05 33 54 3F 16 40 08
 (008.725033)  can0  123   [8]  08 00 3F 43 AE 9C BC FF
 (008.725297)  can0  124   [8]  08 05 33 7B 3D 16 48 08
 (008.734907)  can0  123   [8]  09 00 3F 43 AE E3 44 FF
 (008.735239)  can0  124   [8]  09 05 33 A2 1C 16 51 08
 (008.744822)  can0  123   [8]  0A 00 3F 43 AF 21 F5 FF
 (008.745058)  can0  124   [8]  0A 05 33 C9 17 16 59 08
 (008.754847)  can0  123   [8]  0B 00 3F 43 AF 68 7E FF
 (008.754936)  can0  124   [8]  0B 05 33 EF F4 16 62 08
 (008.764726)  can0  123   [8]  0C 00 3F 43 AF A7 2F FF
 (008.764908)  can0  124   [8]  0C 05 34 16 F0 16 6A 08
 (008.774587)  can0  123   [8]  0D 00 3F 43 AF E5 E1 FF
 (008.774890)  can0  124   [8]  0D 05 34 3D CC 16 72 08
 (008.784534)  can0  123   [8]  0E 00 3F 43 B0 2C 68 FF
 (008.784764)  can0  124   [8]  0E 05 34 64 C7 16 7B 08
 (008.794493)  can0  123   [8]  0F 00 3F 43 B0 6B 1A FF
 (008.794601)  can0  124   [8]  0F 05 34 8B A4 16 83 08
 (008.804393)  can0  123   [8]  10 00 3E 43 B0 B1 A2 FF
 (008.804527)  can0  124   [8]  10 05 34 B2 9D 16 8C 08
 (008.814383)  can0  123   [8]  11 00 3E 43 B0 F0 53 FF
 (008.814498)  can0  124   [8]  11 05 34 D9 7D 16 94 08
 (008.824233)  can0  123   [8]  12 00 3E 43 B1 2F 05 FF
 (008.824345)  can0  124   [8]  12 05 35 00 74 16 9C 08
 (008.834095)  can0  123   [8]  13 00 3E 43 B1 75 8D FF
 (008.834303)  can0  124   [8]  13 05 35 27 57 16 A5 08
 (008.843938)  can0  123   [8]  14 00 3E 43 B1 B4 3F FF
