(1774515057.611741) can0 123#60004742B8E5E0FF
(1774515057.611771) can0 124#6006E0F3C005E608
(1774515057.621460) can0 123#61004742B76DB7FF
(1774515057.621779) can0 124#6106E11AA405DA08
(1774515057.631327) can0 123#62004742B6343FFF
(1774515057.631659) can0 124#6206E1416B05D008
(1774515057.641334) can0 123#63004742B49CBDFF
(1774515057.641459) can0 124#6306E1685305C308
(1774515057.651279) can0 123#64004742B32492FF
(1774515057.651295) can0 124#6406E18F1F05B708
(1774515057.661195) can0 123#65004742B1CBC2FF
(1774515057.661210) can0 124#6506E1B60405AC08
(1774515057.670994) can0 123#66004742B05398FF
(1774515057.671199) can0 124#6606E1DCCE05A008
(1774515057.681051) can0 123#67004742AEFAC6FF
(1774515057.681068) can0 124#6706E203AD059508
(1774515057.690745) can0 123#68004742ADA1F5FF
(1774515057.691046) can0 124#6806E22A77058A08
(1774515057.700724) can0 123#69004742AC0A73FF
(1774515057.700907) can0 124#6906E25159057D08
(1774515057.710642) can0 123#6A004742AAB1A2FF
(1774515057.710898) can0 124#6A06E27829057208
(1774515057.720688) can0 123#6B004742A93978FF
(1774515057.720744) can0 124#6B06E29F0F056608
(1774515057.730511) can0 123#6C004742A7E0A7FF
(1774515057.730549) can0 124#6C06E2C5D5055B08
(1774515057.740657) can0 123#6D004742A6687DFF
(1774515057.740723) can0 124#6D06E2ECBA054F08
(1774515057.750415) can0 123#6E004742A4F054FF
(1774515057.750462) can0 124#6E06E3138D054308
(1774515057.760065) can0 123#6F004742A39782FF
(1774515057.760444) can0 124#6F06E33A66053808
(1774515057.770176) can0 123#70004742A21F58FF
(1774515057.770197) can0 124#7006E36133052C08
(1774515057.779945) can0 123#71004742A0E5E1FF
(1774515057.780234) can0 124#7106E38814052208
(1774515057.789886) can0 123#720047429F4E5EFF
(1774515057.789913) can0 124#7206E3AEDE051508
(1774515057.799679) can0 123#730047429DD634FF
(1774515057.799816) can0 124#7306E3D5C5050908
(1774515057.809533) can0 123#740047429C7D63FF
(1774515057.809762) can0 124#7406E3FC9104FE08
(1774515057.819471) can0 123#750047429B0539FF
(1774515057.820018) can0 124#7506E4237404F208
(1774515057.829368) can0 123#7600474299AC68FF
(1774515057.829554) can0 124#7606E44A4304E708
(1774515057.839264) can0 123#77004742985398FF
(1774515057.839408) can0 124#7706E4712604DC08
(1774515057.849291) can0 123#7800474296BC15FF
(1774515057.849485) can0 124#7806E497EE04CF08
(1774515057.859032) can0 123#79004742956344FF
(1774515057.859223) can0 124#7906E4BECD04C408
(1774515057.868932) can0 123#7A00474293EB1AFF
(1774515057.869522) can0 124#7A06E4E59C04B808
(1774515057.878963) can0 123#7B004742929249FF
(1774515057.879168) can0 124#7B06E50C7B04AD08
(1774515057.888773) can0 123#7C004742913978FF
(1774515057.889000) can0 124#7C06E5334004A208
(1774515057.898663) can0 123#7D0047428FA1F6FF
(1774515057.898844) can0 124#7D06E55A24049508
(1774515057.908523) can0 123#7E0046428E4925FF
(1774515057.908699) can0 124#7E06E580E5048A08
(1774515057.918475) can0 123#7F0046428CD0FBFF
(1774515057.918648) can0 124#7F06E5A7C7047E08
(1774515057.928356) can0 123#800047428B782AFF
(1774515057.928521) can0 124#8006E5CE97047308
(1774515057.938364) can0 123#810047428A0000FF
(1774515057.938551) can0 124#8106E5F579046708
(1774515057.948162) can0 123#8200474288A72FFF
(1774515057.948318) can0 124#8206E61C3D045C08
(1774515057.958081) can0 123#83004742872F06FF
(1774515057.958294) can0 124#8306E6431A045008
(1774515057.967933) can0 123#8400474285D634FF
(1774515057.968247) can0 124#8406E669E3044508
(1774515057.977835) can0 123#85004742845E0AFF
(1774515057.978026) can0 124#8506E690CC043908
(1774515057.987738) can0 123#8600474282E5E1FF
(1774515057.987899) can0 124#8606E6B794042D08
(1774515057.997679) can0 123#8700474281AC68FF
(1774515057.997934) can0 124#8706E6DE7A042308
(1774515058.007482) can0 123#880047428014E6FF
(1774515058.007651) can0 124#8806E70544041608
(1774515058.017470) can0 123#890047427D782AFF
(1774515058.017658) can0 124#8906E72C27040B08
(1774515058.027281) can0 123#8A0047427AC688FF
(1774515058.027447) can0 124#8A06E752F6040008
(1774515058.037176) can0 123#8B004742779783FF
(1774515058.037337) can0 124#8B06E779D803F308
(1774515058.047279) can0 123#8C00474274E5E0FF
(1774515058.047300) can0 124#8C06E7A09F03E808
(1774515058.057181) can0 123#8D00474271F58DFF
(1774515058.057206) can0 124#8D06E7C78203DC08
(1774515058.066920) can0 123#8E0047426F43EAFF
(1774515058.067112) can0 124#8E06E7EE4B03D108
(1774515058.076770) can0 123#8F0047426C5398FF
(1774515058.077091) can0 124#8F06E8152D03C508
(1774515058.086791) can0 123#9000474269A1F6FF
(1774515058.086805) can0 124#9006E83BF603BA08
(1774515058.096624) can0 123#9100474266B1A2FF
(1774515058.096760) can0 124#9106E862DB03AE08
(1774515058.106705) can0 123#92004742640000FF
(1774515058.106727) can0 124#9206E889A403A308
(1774515058.116408) can0 123#93004742610FACFF
(1774515058.116542) can0 124#9306E8B08B039708
(1774515058.126408) can0 123#940047425E1F58FF
(1774515058.126758) can0 124#9406E8D75C038B08
(1774515058.136402) can0 123#950047425B6DB7FF
(1774515058.136447) can0 124#9506E8FE41038008
(1774515058.146213) can0 123#96004742587D64FF
(1774515058.146255) can0 124#9606E9250C037408
(1774515058.156186) can0 123#97004742558D10FF
(1774515058.156230) can0 124#9706E94BED036808
(1774515058.165870) can0 123#98004742531A1FFF
(1774515058.166251) can0 124#9806E972B6035E08
(1774515058.175762) can0 123#990047424FEB1AFF
(1774515058.175963) can0 124#9906E99998035108
(1774515058.185638) can0 123#9A0047424D3978FF
(1774515058.185856) can0 124#9A06E9C064034608
(1774515058.195897) can0 123#9B0047424A4925FF
(1774515058.195917) can0 124#9B06E9E749033A08
(1774515058.205611) can0 123#9C004742479783FF
(1774515058.205648) can0 124#9C06EA0E14032F08
(1774515058.215318) can0 123#9D00474244E5E1FF
(1774515058.215714) can0 124#9D06EA34F9032408
(1774515058.225201) can0 123#9E00474241B6DBFF
(1774515058.225365) can0 124#9E06EA5BC5031708
(1774515058.235401) can0 123#9F0047423F0539FF
(1774515058.235435) can0 124#9F06EA82AC030C08
(1774515058.245076) can0 123#A00047423C14E5FF
(1774515058.245466) can0 124#A006EAA974030008
(1774515058.254923) can0 123#A1004742396344FF
(1774515058.255093) can0 124#A106EAD05602F508
(1774515058.264808) can0 123#A20047423672F1FF
(1774515058.264898) can0 124#A206EAF72502E908
(1774515058.274691) can0 123#A300474233829DFF
(1774515058.275019) can0 124#A306EB1E0902DD08
(1774515058.284615) can0 123#A400474230D0FBFF
(1774515058.284747) can0 124#A406EB44D802D208
(1774515058.294485) can0 123#A50047422E1F59FF
(1774515058.294607) can0 124#A506EB6BBE02C708
(1774515058.304279) can0 123#A60047422B2F05FF
(1774515058.304510) can0 124#A606EB928E02BB08
(1774515058.314188) can0 123#A7004742283EB2FF
(1774515058.314416) can0 124#A706EBB97702AF08
(1774515058.324092) can0 123#A8004742254E5EFF
(1774515058.324330) can0 124#A806EBE04202A308
(1774515058.334219) can0 123#A9004742229CBCFF
(1774515058.334239) can0 124#A906EC0728029808
(1774515058.344164) can0 123#AA0047421FAC68FF
(1774515058.344186) can0 124#AA06EC2DF3028C08
(1774515058.353797) can0 123#AB0047421CFAC6FF
(1774515058.354115) can0 124#AB06EC54DA028108
(1774515058.363703) can0 123#AC0047421A0A73FF
(1774515058.363887) can0 124#AC06EC7BA5027508
(1774515058.373591) can0 123#AD004742171A1FFF
(1774515058.373808) can0 124#AD06ECA28D026908
(1774515058.383577) can0 123#AE00474214687DFF
(1774515058.383679) can0 124#AE06ECC957025E08
(1774515058.393350) can0 123#AF00474211782AFF
(1774515058.393588) can0 124#AF06ECF038025208
(1774515058.403250) can0 123#B00047420EC688FF
(1774515058.403757) can0 124#B006ED1701024708
(1774515058.413153) can0 123#B10047420C14E6FF
(1774515058.413433) can0 124#B106ED3DE4023C08
(1774515058.423117) can0 123#B200474208E5E1FF
(1774515058.423243) can0 124#B206ED64B0022F08
(1774515058.433044) can0 123#B300474206343FFF
(1774515058.433385) can0 124#B306ED8B97022408
(1774515058.442936) can0 123#B40047420343EBFF
(1774515058.443083) can0 124#B406EDB265021808
(1774515058.452734) can0 123#B5004742009249FF
(1774515058.452990) can0 124#B506EDD94A020D08
(1774515058.462668) can0 123#B6004741FB43EBFF
(1774515058.462904) can0 124#B606EE0014020108
(1774515058.472593) can0 123#B7004741F5E0A7FF
(1774515058.472713) can0 124#B706EE26FE01F608
(1774515058.482417) can0 123#B8004741F00000FF
(1774515058.482771) can0 124#B806EE4DCB01EA08
(1774515058.492542) can0 123#B9004741EA9CBCFF
(1774515058.492560) can0 124#B906EE74B301DF08
(1774515058.502280) can0 123#BA004741E4BC14FF
(1774515058.502470) can0 124#BA06EE9B8801D308
(1774515058.512432) can0 123#BB004741DEDB6EFF
(1774515058.512482) can0 124#BB06EEC26E01C708
(1774515058.522304) can0 123#BC004741D9782AFF
(1774515058.522337) can0 124#BC06EEE93A01BC08
(1774515058.531938) can0 123#BD004741D39782FF
(1774515058.532156) can0 124#BD06EF101F01B008
(1774515058.541890) can0 123#BE004741CE343FFF
(1774515058.542054) can0 124#BE06EF36EE01A508
(1774515058.551796) can0 123#BF004741C8D0FBFF
(1774515058.551946) can0 124#BF06EF5DD5019A08
(1774515058.562058) can0 123#C0004741C272F0FF
(1774515058.562108) can0 124#C006EF84A5018D08
(1774515058.571605) can0 123#C1004741BD0FADFF
(1774515058.571749) can0 124#C106EFAB89018208
(1774515058.581414) can0 123#C2004741B72F05FF
(1774515058.581758) can0 124#C206EFD259017608
(1774515058.591385) can0 123#C3004741B14E5EFF
(1774515058.591547) can0 124#C306EFF93D016A08
(1774515058.601256) can0 123#C4004741ABEB1AFF
(1774515058.601410) can0 124#C406F02008015F08
(1774515058.611151) can0 123#C5004741A687D6FF
(1774515058.611288) can0 124#C506F046EF015408
(1774515058.621054) can0 123#C6004741A0A72FFF
(1774515058.621236) can0 124#C606F06DB7014808
(1774515058.630984) can0 123#C70047419B43EBFF
(1774515058.631092) can0 124#C706F094A0013D08
(1774515058.640880) can0 123#C8004741956344FF
(1774515058.641063) can0 124#C806F0BB67013108
(1774515058.651083) can0 123#C90047418F829DFF
(1774515058.651127) can0 124#C906F0E24D012508
(1774515058.660594) can0 123#CA00474189A1F6FF
(1774515058.661104) can0 124#CA06F10918011908
(1774515058.670584) can0 123#CB004741843EB2FF
(1774515058.670795) can0 124#CB06F12FFA010E08
(1774515058.680428) can0 123#CC0047417CBC14FF
(1774515058.680887) can0 124#CC06F156C4010208
(1774515058.690301) can0 123#CD00474171F58DFF
(1774515058.690653) can0 124#CD06F17DA900F708
(1774515058.700199) can0 123#CE00474166343FFF
(1774515058.700532) can0 124#CE06F1A47A00EB08
(1774515058.710174) can0 123#CF0047415A72F0FF
(1774515058.710393) can0 124#CF06F1CB6200DF08
(1774515058.720231) can0 123#D00047414FAC68FF
(1774515058.720277) can0 124#D006F1F23100D408
(1774515058.730022) can0 123#D100474143EB1BFF
(1774515058.730494) can0 124#D106F2191400C808
(1774515058.740023) can0 123#D2004741392493FF
(1774515058.740082) can0 124#D206F23FDF00BD08
(1774515058.749984) can0 123#D30047412E5E0BFF
(1774515058.750029) can0 124#D306F266C400B208
(1774515058.760236) can0 123#D400474121A1F5FF
(1774515058.760280) can0 124#D406F28D8E00A508
(1774515058.769670) can0 123#D500474116DB6EFF
(1774515058.769703) can0 124#D506F2B472009A08
(1774515058.779817) can0 123#D60047410B1A1FFF
(1774515058.779870) can0 124#D606F2DB3F008E08
(1774515058.789400) can0 123#D7004741005398FF
(1774515058.789513) can0 124#D706F30225008308
(1774515058.799532) can0 123#D8004740E92493FF
(1774515058.799585) can0 124#D806F328F5007708
(1774515058.809577) can0 123#D9004740D1A1F6FF
(1774515058.809629) can0 124#D906F34FD8006B08
(1774515058.819094) can0 123#DA004740BC14E5FF
(1774515058.819319) can0 124#DA06F376A0006008
(1774515058.828962) can0 123#DB004740A49249FF
(1774515058.829253) can0 124#DB06F39D85005408
(1774515058.839784) can0 123#DC00474090FAC6FF
(1774515058.839809) can0 124#DC06F3C44E004A08
(1774515058.848721) can0 123#DD0047406F0539FF
(1774515058.848984) can0 124#DD06F3EB2D003D08
(1774515058.858592) can0 123#DE004740400001FF
(1774515058.858921) can0 124#DE06F411F5003108
(1774515058.868531) can0 123#DF00474014E5E1FF
(1774515058.868770) can0 124#DF06F438D6002608
(1774515058.878381) can0 123#E000473FCBC14EFF
(1774515058.878644) can0 124#E006F45FA3001A08
(1774515058.888279) can0 123#E100473F6B1A1FFF
(1774515058.888476) can0 124#E106F48685000F08
(1774515058.898244) can0 123#E200473E7AC688FF
(1774515058.898465) can0 124#E206F4AD51000408
(1774515058.908086) can0 123#E3004743B3B978FF
(1774515058.908383) can0 124#E306F4D43916EF08
(1774515058.918048) can0 123#E4004743B36344FF
(1774515058.918203) can0 124#E406F4FB0416E408
(1774515058.928147) can0 123#E5004743B30539FF
(1774515058.928184) can0 124#E506F521EB16D808
(1774515058.938045) can0 123#E6004743B2AF05FF
(1774515058.938087) can0 124#E606F548B716CD08
(1774515058.948161) can0 123#E7004743B250FBFF
(1774515058.948221) can0 124#E706F56F9A16C108
(1774515058.957763) can0 123#E8004743B1FAC6FF
(1774515058.957813) can0 124#E806F5966616B608
(1774515058.967463) can0 123#E9004743B19CBCFF
(1774515058.967755) can0 124#E906F5BD4916AA08
(1774515058.977343) can0 123#EA004743B13EB2FF
(1774515058.977676) can0 124#EA06F5E415169E08
(1774515058.987364) can0 123#EB004743B0E87DFF
(1774515058.987544) can0 124#EB06F60AFA169308
(1774515058.997178) can0 123#EC004743B08A73FF
(1774515058.997504) can0 124#EC06F631CC168708
(1774515059.007304) can0 123#ED004743B02C68FF
(1774515059.007347) can0 124#ED06F658B4167B08
(1774515059.017142) can0 123#EE004743AFD635FF
(1774515059.017180) can0 124#EE06F67F82167008
(1774515059.026965) can0 123#EF004743AF782AFF
(1774515059.027130) can0 124#EF06F6A668166408
(1774515059.036731) can0 123#F0004743AF29CCFF
(1774515059.036894) can0 124#F006F6CD38165A08
(1774515059.046602) can0 123#F1004743AEC3EBFF
(1774515059.046905) can0 124#F106F6F41D164D08
(1774515059.057247) can0 123#F2004743AE65E1FF
(1774515059.057300) can0 124#F206F71AEB164108
(1774515059.066744) can0 123#F3004743AE0FACFF
(1774515059.066792) can0 124#F306F741D0163608
(1774515059.076532) can0 123#F4004743ADB1A2FF
(1774515059.076574) can0 124#F406F7689D162A08
(1774515059.086435) can0 123#F5004743AD5B6EFF
(1774515059.086492) can0 124#F506F78F7F161F08
(1774515059.096322) can0 123#F6004743AD053AFF
(1774515059.096358) can0 124#F606F7B64A161408
(1774515059.106049) can0 123#F7004743AC9F59FF
(1774515059.106249) can0 124#F706F7DD31160708
(1774515059.116003) can0 123#F8004743AC4924FF
(1774515059.116124) can0 124#F806F803FC15FC08
(1774515059.125986) can0 123#F9004743ABEB1AFF
(1774515059.126021) can0 124#F906F82ADF15F008
(1774515059.135853) can0 123#FA004743AB94E6FF
(1774515059.135881) can0 124#FA06F851AC15E508
(1774515059.145814) can0 123#FB004743AB36DBFF
(1774515059.145844) can0 124#FB06F8788D15D908
(1774515059.155651) can0 123#FC004743AAE0A7FF
(1774515059.155686) can0 124#FC06F89F5415CE08
(1774515059.165602) can0 123#FD004743AA829DFF
(1774515059.165634) can0 124#FD06F8C63D15C208
(1774515059.175551) can0 123#FE004743AA2492FF
(1774515059.175601) can0 124#FE06F8ED0815B608
(1774515059.185364) can0 123#FF004743A9D634FF
(1774515059.185505) can0 124#FF06F913EF15AC08
(1774515059.195272) can0 123#00004643A97054FF
(1774515059.195665) can0 124#0006F93AB9159F08
(1774515059.205313) can0 123#01004643A91249FF
(1774515059.205368) can0 124#0106F9619F159308
(1774515059.215331) can0 123#02004743A8BC15FF
(1774515059.215375) can0 124#0206F9886F158808
(1774515059.224870) can0 123#03004743A85E0AFF
(1774515059.225132) can0 124#0306F9AF5D157C08
(1774515059.234745) can0 123#04004743A807D6FF
(1774515059.234892) can0 124#0406F9D62D157108
(1774515059.245376) can0 123#05004743A7B1A2FF
(1774515059.245426) can0 124#0506F9FD14156608
(1774515059.254625) can0 123#06004743A74BC1FF
(1774515059.254659) can0 124#0606FA23E0155908
(1774515059.264671) can0 123#07004743A6F58DFF
(1774515059.264719) can0 124#0706FA4ACA154E08
(1774515059.274512) can0 123#08004643A69783FF
(1774515059.274576) can0 124#0806FA7194154208
(1774515059.284310) can0 123#09004743A63978FF
(1774515059.284484) can0 124#0906FA987F153608
(1774515059.294210) can0 123#0A004743A5E344FF
(1774515059.294253) can0 124#0A06FABF4E152B08
(1774515059.304229) can0 123#0B004743A58D0FFF
(1774515059.304284) can0 124#0B06FAE637152008
(1774515059.314058) can0 123#0C004743A52F05FF
(1774515059.314286) can0 124#0C06FB0D06151408
(1774515059.324083) can0 123#0D004743A4D0FBFF
(1774515059.324128) can0 124#0D06FB33EB150808
(1774515059.333887) can0 123#0E004743A47AC6FF
(1774515059.334094) can0 124#0E06FB5AB914FD08
(1774515059.343786) can0 123#0F004743A41CBCFF
(1774515059.343831) can0 124#0F06FB819B14F108
(1774515059.353785) can0 123#10004743A3BEB2FF
(1774515059.353833) can0 124#1006FBA86814E508
(1774515059.363932) can0 123#11004743A3687EFF
(1774515059.363978) can0 124#1106FBCF4F14DA08
(1774515059.373410) can0 123#12004743A30A73FF
(1774515059.373465) can0 124#1206FBF61E14CE08
(1774515059.383346) can0 123#13004743A2B43FFF
(1774515059.383393) can0 124#1306FC1D0614C308
(1774515059.393200) can0 123#14004743A25634FF
(1774515059.393391) can0 124#1406FC43D814B708
(1774515059.403118) can0 123#15004743A1F82AFF
(1774515059.403278) can0 124#1506FC6AC014AB08
(1774515059.412985) can0 123#16004743A1A1F5FF
(1774515059.413229) can0 124#1606FC918D14A008
(1774515059.423024) can0 123#17004743A143EBFF
(1774515059.423045) can0 124#1706FCB870149408
(1774515059.432905) can0 123#18004743A0E5E1FF
(1774515059.432926) can0 124#1806FCDF3E148808
(1774515059.442712) can0 123#19004743A09783FF
(1774515059.442747) can0 124#1906FD0624147E08
(1774515059.452443) can0 123#1A004743A031A2FF
(1774515059.452624) can0 124#1A06FD2CF2147108
(1774515059.462636) can0 123#1B0047439FD397FF
(1774515059.462688) can0 124#1B06FD53D6146508
(1774515059.472424) can0 123#1C0047439F7D63FF
(1774515059.472475) can0 124#1C06FD7AA1145A08
(1774515059.482096) can0 123#1D0047439F1F59FF
(1774515059.482329) can0 124#1D06FDA183144E08
(1774515059.491918) can0 123#1E0047439EC924FF
(1774515059.492154) can0 124#1E06FDC84D144308
(1774515059.501849) can0 123#1F0047439E72F0FF
(1774515059.502002) can0 124#1F06FDEF35143808
(1774515059.511753) can0 123#200047439E0D10FF
(1774515059.511919) can0 124#2006FE1609142B08
(1774515059.521638) can0 123#210047439DB6DCFF
(1774515059.521784) can0 124#2106FE3CF5142008
(1774515059.531598) can0 123#220047439D60A7FF
(1774515059.531899) can0 124#2206FE63C8141508
(1774515059.541448) can0 123#230047439D029DFF
(1774515059.541798) can0 124#2306FE8AB0140908
(1774515059.551405) can0 123#240047439CA492FF
(1774515059.551584) can0 124#2406FEB18013FD08
(1774515059.561219) can0 123#250047439C4688FF
(1774515059.561385) can0 124#2506FED86B13F108
(1774515059.571141) can0 123#260047439BF053FF
(1774515059.571295) can0 124#2606FEFF3713E608
(1774515059.581383) can0 123#270047439B9A1FFF
(1774515059.581406) can0 124#2706FF261F13DB08
(1774515059.590924) can0 123#280047439B43EBFF
(1774515059.591139) can0 124#2806FF4CF313D008
(1774515059.600848) can0 123#290047439ADE0AFF
(1774515059.601134) can0 124#2906FF73DB13C308
(1774515059.610934) can0 123#2A0047439A8000FF
(1774515059.610953) can0 124#2A06FF9AAB13B708
(1774515059.620635) can0 123#2B0047439A29CCFF
(1774515059.620808) can0 124#2B06FFC19513AC08
(1774515059.630821) can0 123#2C00474399CBC2FF
(1774515059.630849) can0 124#2C06FFE86113A008
(1774515059.640397) can0 123#2D00474399758DFF
(1774515059.640614) can0 124#2D07000F4B139508
(1774515059.650518) can0 123#2E004743991F59FF
(1774515059.650540) can0 124#2E07003617138A08
(1774515059.660352) can0 123#2F00474398B978FF
(1774515059.660367) can0 124#2F07005CF9137D08
(1774515059.670262) can0 123#30004743986344FF
(1774515059.670278) can0 124#30070083CA137208
(1774515059.679999) can0 123#31004743980539FF
(1774515059.680210) can0 124#310700AAAB136608
(1774515059.690210) can0 123#3200474397AF05FF
(1774515059.690233) can0 124#320700D17B135B08
(1774515059.699844) can0 123#330047439758D1FF
(1774515059.699982) can0 124#330700F866135008
(1774515059.709839) can0 123#3400474396FAC7FF
(1774515059.710024) can0 124#3407011F34134408
(1774515059.719629) can0 123#35004743969CBCFF
(1774515059.719825) can0 124#350701461D133808
(1774515059.729970) can0 123#36004743964688FF
(1774515059.729994) can0 124#3607016CEC132D08
(1774515059.739522) can0 123#3700474395E87EFF
(1774515059.739712) can0 124#37070193D8132108
(1774515059.749667) can0 123#38004743958A73FF
(1774515059.749690) can0 124#380701BAA7131508
(1774515059.759264) can0 123#39004743952C68FF
(1774515059.759447) can0 124#390701E18E130908
(1774515059.769340) can0 123#3A00474394D634FF
(1774515059.769361) can0 124#3A0702085D12FE08
(1774515059.779105) can0 123#3B00474394782AFF
(1774515059.779261) can0 124#3B07022F4512F208
(1774515059.790938) can0 123#3C0047439429CCFF
(1774515059.790964) can0 124#3C0702561712E808
(1774515059.799307) can0 123#3D00474393C3EBFF
(1774515059.799465) can0 124#3D07027CFC12DB08
(1774515059.809014) can0 123#3E0047439365E1FF
(1774515059.809047) can0 124#3E0702A3CC12CF08
(1774515059.818681) can0 123#3F004743930FADFF
(1774515059.818780) can0 124#3F0702CAAD12C408
(1774515059.828361) can0 123#4000474392B1A2FF
(1774515059.828533) can0 124#400702F17A12B808
(1774515059.838228) can0 123#41004643925B6DFF
(1774515059.838473) can0 124#410703185E12AD08
(1774515059.848171) can0 123#42004743920539FF
(1774515059.848453) can0 124#4207033F3112A208
(1774515059.858069) can0 123#43004743919F59FF
(1774515059.858244) can0 124#4307036616129508
(1774515059.867947) can0 123#44004743914925FF
(1774515059.868130) can0 124#4407038CE2128A08
(1774515059.877874) can0 123#4500474390EB1AFF
(1774515059.878047) can0 124#450703B3C3127E08
(1774515059.887694) can0 123#460047439094E6FF
(1774515059.887930) can0 124#460703DA8A127308
(1774515059.897588) can0 123#470046439036DCFF
(1774515059.897834) can0 124#4707040169126708
(1774515059.907606) can0 123#480046438FD8D1FF
(1774515059.907776) can0 124#480704283B125B08
(1774515059.917769) can0 123#490046438F829DFF
(1774515059.917785) can0 124#4907044F22125008
(1774515059.927348) can0 123#4A0046438F2492FF
(1774515059.927561) can0 124#4A070475EF124408
(1774515059.937218) can0 123#4B0046438ED635FF
(1774515059.937457) can0 124#4B07049CD4123A08
(1774515059.947136) can0 123#4C0047438E7054FF
(1774515059.947383) can0 124#4C0704C3A8122D08
(1774515059.957208) can0 123#4D0047438E1249FF
(1774515059.957311) can0 124#4D0704EA95122108
(1774515059.967063) can0 123#4E0047438DBC15FF
(1774515059.967224) can0 124#4E07051161121608
(1774515059.977067) can0 123#4F0047438D5E0BFF
(1774515059.977238) can0 124#4F0705384A120A08
(1774515059.987028) can0 123#500047438D07D6FF
(1774515059.987050) can0 124#5007055F1311FF08
(1774515059.996757) can0 123#510047438CB1A2FF
(1774515059.996953) can0 124#51070585F611F408
(1774515060.006661) can0 123#520047438C4BC1FF
(1774515060.006862) can0 124#520705ACC611E708
(1774515060.016657) can0 123#530047438BF58DFF
(1774515060.017162) can0 124#530705D3AF11DC08
(1774515060.026499) can0 123#540047438B9782FF
(1774515060.026916) can0 124#540705FA7D11D008
(1774515060.036515) can0 123#550047438B414EFF
(1774515060.036551) can0 124#550706216B11C508
(1774515060.046185) can0 123#560047438AE344FF
(1774515060.046514) can0 124#560706483B11B908
(1774515060.056163) can0 123#570047438A8D10FF
(1774515060.056505) can0 124#5707066F2111AE08
(1774515060.065931) can0 123#580047438A2F05FF
(1774515060.066177) can0 124#58070695ED11A208
(1774515060.075852) can0 123#5900474389D0FBFF
(1774515060.076158) can0 124#590706BCD7119608
(1774515060.085819) can0 123#5A004743897AC7FF
(1774515060.085922) can0 124#5A0706E3A7118B08
(1774515060.095986) can0 123#5B004743891CBCFF
(1774515060.096018) can0 124#5B07070A95117F08
(1774515060.105586) can0 123#5C00474388BEB1FF
(1774515060.105902) can0 124#5C0707315A117308
(1774515060.115702) can0 123#5D00474388687DFF
(1774515060.115921) can0 124#5D0707583F116808
(1774515060.125734) can0 123#5E004743880A73FF
(1774515060.125780) can0 124#5E07077F09115C08
(1774515060.135273) can0 123#5F00474387BC15FF
(1774515060.135547) can0 124#5F0707A5F0115208
(1774515060.145160) can0 123#60004743875634FF
(1774515060.145321) can0 124#600707CCBE114508
(1774515060.155335) can0 123#6100474386F82AFF
(1774515060.155356) can0 124#610707F3A4113908
(1774515060.164964) can0 123#6200474386A1F6FF
(1774515060.165161) can0 124#6207081A73112E08
(1774515060.175001) can0 123#630047438643EBFF
(1774515060.175156) can0 124#6307084156112208
(1774515060.184837) can0 123#6400474385EDB7FF
(1774515060.184952) can0 124#6407086828111708
(1774515060.194757) can0 123#65004743859783FF
(1774515060.194772) can0 124#6507088F0C110C08
(1774515060.204728) can0 123#660047438531A2FF
(1774515060.204749) can0 124#660708B5D710FF08
(1774515060.214438) can0 123#6700474384DB6EFF
(1774515060.214765) can0 124#670708DCB810F408
(1774515060.224370) can0 123#68004743847D63FF
(1774515060.224623) can0 124#680709038510E808
(1774515060.234260) can0 123#69004743841F59FF
(1774515060.234407) can0 124#6907092A6B10DC08
(1774515060.244218) can0 123#6A00474383C925FF
(1774515060.244361) can0 124#6A0709513310D108
(1774515060.254209) can0 123#6B0047438372F0FF
(1774515060.254226) can0 124#6B0709781C10C608
(1774515060.264091) can0 123#6C0047438314E6FF
(1774515060.264105) can0 124#6C07099EE310BA08
(1774515060.273821) can0 123#6D00474382B6DBFF
(1774515060.274146) can0 124#6D0709C5CD10AE08
(1774515060.283968) can0 123#6E0047438260A8FF
(1774515060.283985) can0 124#6E0709EC9510A308
(1774515060.293801) can0 123#6F00474382029DFF
(1774515060.293819) can0 124#6F070A137C109708
(1774515060.303535) can0 123#7000474381A492FF
(1774515060.303722) can0 124#70070A3A49108B08
(1774515060.313364) can0 123#71004743814E5EFF
(1774515060.313549) can0 124#71070A612C108008
(1774515060.323194) can0 123#7200474380F054FF
(1774515060.323452) can0 124#72070A87FC107408
(1774515060.333182) can0 123#73004743809249FF
(1774515060.333328) can0 124#73070AAEDD106808
(1774515060.342996) can0 123#740047438043EBFF
(1774515060.343195) can0 124#74070AD5A8105E08
(1774515060.352917) can0 123#750047437FBC16FF
(1774515060.353131) can0 124#75070AFC8B105108
(1774515060.362919) can0 123#760047437F0FADFF
(1774515060.363000) can0 124#76070B2358104608
(1774515060.372770) can0 123#770047437E5397FF
(1774515060.372903) can0 124#77070B4A39103A08
(1774515060.382613) can0 123#780047437D9782FF
(1774515060.382788) can0 124#78070B7102102E08
(1774515060.392474) can0 123#790047437CEB1AFF
(1774515060.392717) can0 124#79070B97E6102308
(1774515060.402436) can0 123#7A0047437C3EB1FF
(1774515060.402653) can0 124#7A070BBEAF101808
(1774515060.412282) can0 123#7B0047437B829DFF
(1774515060.412508) can0 124#7B070BE596100C08
(1774515060.422179) can0 123#7C0047437AC688FF
(1774515060.422537) can0 124#7C070C0C5F100008
(1774515060.432114) can0 123#7D0047437A0A73FF
(1774515060.432368) can0 124#7D070C33400FF408
(1774515060.442034) can0 123#7E004743795E0BFF
(1774515060.442246) can0 124#7E070C5A0C0FE908
(1774515060.451960) can0 123#7F00474378A1F5FF
(1774515060.452144) can0 124#7F070C80EB0FDD08
(1774515060.461887) can0 123#8000474377F58EFF
(1774515060.462056) can0 124#80070CA7B20FD208
(1774515060.471690) can0 123#81004743773978FF
(1774515060.471902) can0 124#81070CCE970FC608
(1774515060.481815) can0 123#82004743769CBDFF
(1774515060.481833) can0 124#82070CF55E0FBC08
(1774515060.491506) can0 123#8300474375D0FBFF
(1774515060.491777) can0 124#83070D1C460FAF08
(1774515060.501407) can0 123#840047437514E6FF
(1774515060.501641) can0 124#84070D430F0FA308
(1774515060.511332) can0 123#8500474374687DFF
(1774515060.511694) can0 124#85070D69F00F9808
(1774515060.521222) can0 123#8600474373AC69FF
(1774515060.521438) can0 124#86070D90BB0F8C08
(1774515060.531198) can0 123#87004743730000FF
(1774515060.531364) can0 124#87070DB7A20F8108
(1774515060.541179) can0 123#88004743725398FF
(1774515060.541198) can0 124#88070DDE690F7608
(1774515060.550886) can0 123#890047437187D6FF
(1774515060.551127) can0 124#89070E05490F6908
(1774515060.560822) can0 123#8A00474370DB6DFF
(1774515060.561004) can0 124#8A070E2C110F5E08
(1774515060.570892) can0 123#8B004743701F59FF
(1774515060.570915) can0 124#8B070E52F80F5208
(1774515060.580606) can0 123#8C0046436F72F0FF
(1774515060.580731) can0 124#8C070E79C20F4708
(1774515060.590513) can0 123#8D0046436EB6DBFF
(1774515060.590719) can0 124#8D070EA0AB0F3B08
(1774515060.600573) can0 123#8E0046436E0A73FF
(1774515060.600592) can0 124#8E070EC7760F3008
(1774515060.610312) can0 123#8F0046436D4E5EFF
(1774515060.610538) can0 124#8F070EEE5C0F2408
(1774515060.620197) can0 123#900046436C924AFF
(1774515060.620372) can0 124#90070F152D0F1808
(1774515060.630104) can0 123#910046436BF58DFF
(1774515060.630322) can0 124#91070F3C130F0E08
(1774515060.640024) can0 123#920046436B29CBFF
(1774515060.640163) can0 124#92070F62DE0F0108
(1774515060.650053) can0 123#930046436A6DB6FF
(1774515060.650069) can0 124#93070F89C50EF508
(1774515060.659964) can0 123#9400464369C14EFF
(1774515060.659984) can0 124#94070FB0950EEA08
(1774515060.669607) can0 123#95004643690539FF
(1774515060.669837) can0 124#95070FD7810EDE08
(1774515060.679774) can0 123#96004643684925FF
(1774515060.679816) can0 124#96070FFE520ED208
(1774515060.689471) can0 123#9700464367AC68FF
(1774515060.689715) can0 124#97071025420EC808
(1774515060.699438) can0 123#9800464366E0A8FF
(1774515060.699638) can0 124#9807104C0E0EBB08
(1774515060.709273) can0 123#99004643662493FF
(1774515060.709457) can0 124#99071072F50EAF08
(1774515060.719145) can0 123#9A00464365782AFF
(1774515060.719461) can0 124#9A071099C70EA408
(1774515060.729104) can0 123#9B00464364BC14FF
(1774515060.729219) can0 124#9B0710C0B60E9808
(1774515060.739007) can0 123#9C004643640FACFF
(1774515060.739125) can0 124#9C0710E7840E8D08
(1774515060.748908) can0 123#9D004643636343FF
(1774515060.749118) can0 124#9D07110E6F0E8208
(1774515060.758739) can0 123#9E004643629783FF
(1774515060.758938) can0 124#9E071135410E7508
(1774515060.768712) can0 123#9F00474361EB1AFF
(1774515060.768872) can0 124#9F07115C2E0E6A08
(1774515060.778699) can0 123#A0004743612F06FF
(1774515060.778885) can0 124#A0071183030E5E08
(1774515060.788423) can0 123#A100474360829DFF
(1774515060.788620) can0 124#A10711A9E80E5308
(1774515060.798274) can0 123#A20047435FD634FF
(1774515060.798510) can0 124#A20711D0B90E4808
(1774515060.808579) can0 123#A30047435F1A20FF
(1774515060.808593) can0 124#A30711F7A00E3C08
(1774515060.818107) can0 123#A40047435E5E0AFF
(1774515060.818562) can0 124#A407121E740E3008
(1774515060.828072) can0 123#A50047435DB1A3FF
(1774515060.828195) can0 124#A50712455E0E2508
(1774515060.837875) can0 123#A60047435CF58DFF
(1774515060.838085) can0 124#A607126C2E0E1908
(1774515060.847779) can0 123#A70047435C3978FF
(1774515060.848406) can0 124#A7071293150E0D08
(1774515060.857883) can0 123#A80047435B7D63FF
(1774515060.858011) can0 124#A80712B9E40E0108
(1774515060.867728) can0 123#A90047435AD0FBFF
(1774515060.867877) can0 124#A90712E0CC0DF608
(1774515060.877751) can0 123#AA0047435A14E6FF
(1774515060.877771) can0 124#AA071307990DEA08
(1774515060.887519) can0 123#AB00474359782AFF
(1774515060.887637) can0 124#AB07132E7C0DE008
(1774515060.897272) can0 123#AC00474358AC69FF
(1774515060.897518) can0 124#AC0713554C0DD308
(1774515060.907132) can0 123#AD00474357F053FF
(1774515060.907368) can0 124#AD07137C350DC708
(1774515060.916984) can0 123#AE0047435743EBFF
(1774515060.917226) can0 124#AE0713A3030DBC08
(1774515060.926945) can0 123#AF0047435687D6FF
(1774515060.927138) can0 124#AF0713C9E90DB008
(1774515060.936802) can0 123#B000474355DB6DFF
(1774515060.937062) can0 124#B00713F0B50DA508
(1774515060.946863) can0 123#B1004743552F05FF
(1774515060.946932) can0 124#B1071417970D9A08
(1774515060.956598) can0 123#B2004743546344FF
(1774515060.956827) can0 124#B207143E630D8D08
(1774515060.966472) can0 123#B300474353B6DCFF
(1774515060.966716) can0 124#B3071465460D8208
(1774515060.976385) can0 123#B400474352FAC7FF
(1774515060.976627) can0 124#B407148C150D7608
(1774515060.986362) can0 123#B5004743524E5EFF
(1774515060.986543) can0 124#B50714B2FA0D6B08
(1774515060.996232) can0 123#B6004743519248FF
(1774515060.996420) can0 124#B60714D9C30D5F08
(1774515061.006239) can0 123#B700474350D634FF
(1774515061.006337) can0 124#B7071500AC0D5308
(1774515061.015952) can0 123#B80047435029CBFF
(1774515061.016153) can0 124#B8071527720D4808
(1774515061.025938) can0 123#B90047434F6DB7FF
(1774515061.026060) can0 124#B907154E570D3C08
(1774515061.035995) can0 123#BA0047434ED0FAFF
(1774515061.036013) can0 124#BA071575210D3208
(1774515061.045737) can0 123#BB0047434E053AFF
(1774515061.045860) can0 124#BB07159C060D2508
(1774515061.055773) can0 123#BC0047434D4925FF
(1774515061.055781) can0 124#BC0715C2CE0D1908
(1774515061.065540) can0 123#BD0047434C9CBCFF
(1774515061.065898) can0 124#BD0715E9B70D0E08
(1774515061.075432) can0 123#BE0047434BE0A8FF
(1774515061.075778) can0 124#BE071610810D0208
(1774515061.085422) can0 123#BF0047434B343FFF
(1774515061.085568) can0 124#BF071637650CF708
(1774515061.095181) can0 123#C00047434A87D7FF
(1774515061.095582) can0 124#C007165E320CEC08
(1774515061.105277) can0 123#C100474349BC15FF
(1774515061.105295) can0 124#C1071685150CDF08
(1774515061.115210) can0 123#C2004743490FACFF
(1774515061.115228) can0 124#C20716ABDE0CD408
(1774515061.124969) can0 123#C3004743485398FF
(1774515061.125126) can0 124#C30716D2C30CC808
(1774515061.134815) can0 123#C400474347A72FFF
(1774515061.134995) can0 124#C40716F9910CBD08
(1774515061.144756) can0 123#C500474346EB1AFF
(1774515061.144896) can0 124#C5071720780CB108
(1774515061.154652) can0 123#C6004743463EB2FF
(1774515061.154823) can0 124#C6071747490CA608
(1774515061.164709) can0 123#C700474345829DFF
(1774515061.164744) can0 124#C707176E2D0C9A08
(1774515061.174418) can0 123#C800474344D635FF
(1774515061.174745) can0 124#C8071794FA0C8F08
(1774515061.184564) can0 123#C9004743441A1FFF
(1774515061.184597) can0 124#C90717BBE20C8308
(1774515061.194302) can0 123#CA004743435E0AFF
(1774515061.194441) can0 124#CA0717E2B10C7708
(1774515061.204287) can0 123#CB00464342A1F5FF
(1774515061.204323) can0 124#CB071809930C6B08
(1774515061.214106) can0 123#CC00464341F58DFF
(1774515061.214122) can0 124#CC071830650C6008
(1774515061.224150) can0 123#CD004743413978FF
(1774515061.224200) can0 124#CD071857560C5408
(1774515061.233883) can0 123#CE004743409CBCFF
(1774515061.234276) can0 124#CE07187E250C4A08
(1774515061.243955) can0 123#CF0047433FD0FBFF
(1774515061.243990) can0 124#CF0718A50C0C3D08
(1774515061.253717) can0 123#D00047433F14E7FF
(1774515061.253871) can0 124#D00718CBDA0C3108
(1774515061.263466) can0 123#D10047433E687EFF
(1774515061.263727) can0 124#D10718F2C10C2608
(1774515061.273441) can0 123#D20047433DAC68FF
(1774515061.273583) can0 124#D20719198D0C1A08
(1774515061.283401) can0 123#D30046433CFFFFFF
(1774515061.283508) can0 124#D3071940750C0F08
(1774515061.293464) can0 123#D40046433C5397FF
(1774515061.293490) can0 124#D4071967400C0408
(1774515061.303044) can0 123#D50046433B87D6FF
(1774515061.303314) can0 124#D507198E2C0BF708
(1774515061.312975) can0 123#D60046433ADB6EFF
(1774515061.313092) can0 124#D60719B4F90BEC08
(1774515061.322920) can0 123#D70046433A1F59FF
(1774515061.323000) can0 124#D70719DBE60BE008
(1774515061.332780) can0 123#D80046433972F1FF
(1774515061.332874) can0 124#D8071A02B90BD508
(1774515061.342696) can0 123#D900464338B6DCFF
(1774515061.342875) can0 124#D9071A299F0BC908
(1774515061.352508) can0 123#DA004643380A73FF
(1774515061.352768) can0 124#DA071A506F0BBE08
(1774515061.362453) can0 123#DB004643374E5DFF
(1774515061.362624) can0 124#DB071A77570BB208
(1774515061.372448) can0 123#DC004643369249FF
(1774515061.372557) can0 124#DC071A9E260BA608
(1774515061.382297) can0 123#DD00464335E5E0FF
(1774515061.382695) can0 124#DD071AC5100B9B08
(1774515061.392152) can0 123#DE0046433529CCFF
(1774515061.392319) can0 124#DE071AEBE10B8F08
(1774515061.402230) can0 123#DF004643346DB7FF
(1774515061.402247) can0 124#DF071B12CA0B8308
(1774515061.411955) can0 123#E000464333C14EFF
(1774515061.412189) can0 124#E0071B39970B7808
(1774515061.422066) can0 123#E1004643330539FF
(1774515061.422085) can0 124#E1071B607E0B6C08
(1774515061.431724) can0 123#E2004643324925FF
(1774515061.431990) can0 124#E2071B874D0B6008
(1774515061.441634) can0 123#E300464331AC69FF
(1774515061.442119) can0 124#E3071BAE350B5608
(1774515061.451554) can0 123#E400464330E0A7FF
(1774515061.451757) can0 124#E4071BD5090B4908
(1774515061.461654) can0 123#E500464330343FFF
(1774515061.461687) can0 124#E5071BFBF20B3E08
(1774515061.471381) can0 123#E60046432F782AFF
(1774515061.471500) can0 124#E6071C22C00B3208
(1774515061.481310) can0 123#E70046432EBC15FF
(1774515061.481437) can0 124#E7071C49AD0B2608
(1774515061.491197) can0 123#E80046432E0FACFF
(1774515061.491401) can0 124#E8071C707C0B1B08
(1774515061.501129) can0 123#E90046432D6344FF
(1774515061.501235) can0 124#E9071C97690B1008
(1774515061.511098) can0 123#EA0046432CA72FFF
(1774515061.511125) can0 124#EA071CBE2E0B0408
(1774515061.520879) can0 123#EB0046432BEB1AFF
(1774515061.521169) can0 124#EB071CE5180AF808
(1774515061.530823) can0 123#EC0046432B2F05FF
(1774515061.531139) can0 124#EC071D0BE60AEC08
(1774515061.540609) can0 123#ED0046432A829DFF
(1774515061.540800) can0 124#ED071D32D00AE108
(1774515061.550458) can0 123#EE00464329C688FF
(1774515061.550711) can0 124#EE071D59A00AD508
(1774515061.560456) can0 123#EF004643290A73FF
(1774515061.560637) can0 124#EF071D80890AC908
(1774515061.570338) can0 123#F0004643285E0AFF
(1774515061.570532) can0 124#F0071DA75A0ABE08
(1774515061.580204) can0 123#F100464327B1A2FF
(1774515061.580561) can0 124#F1071DCE3D0AB308
(1774515061.590212) can0 123#F200474326F58DFF
(1774515061.590324) can0 124#F2071DF5100AA708
(1774515061.599939) can0 123#F3004743263978FF
(1774515061.600114) can0 124#F3071E1BF40A9B08
(1774515061.609764) can0 123#F4004743257D63FF
(1774515061.610068) can0 124#F4071E42C30A8F08
(1774515061.619717) can0 123#F500474324D0FBFF
(1774515061.619999) can0 124#F5071E69AE0A8408
(1774515061.629550) can0 123#F60047432414E6FF
(1774515061.629815) can0 124#F6071E907F0A7808
(1774515061.639556) can0 123#F700474323782AFF
(1774515061.639694) can0 124#F7071EB76C0A6E08
(1774515061.649366) can0 123#F800474322AC68FF
(1774515061.649597) can0 124#F8071EDE380A6108
(1774515061.659345) can0 123#F900474321F054FF
(1774515061.659510) can0 124#F9071F051C0A5508
(1774515061.669205) can0 123#FA0047432143EBFF
(1774515061.669409) can0 124#FA071F2BEE0A4A08
(1774515061.679134) can0 123#FB0047432087D7FF
(1774515061.679339) can0 124#FB071F52D00A3E08
(1774515061.689044) can0 123#FC0047431FDB6EFF
(1774515061.689270) can0 124#FC071F799F0A3308
(1774515061.698895) can0 123#FD0047431F2F05FF
(1774515061.699117) can0 124#FD071FA0830A2808
(1774515061.708820) can0 123#FE0047431E6344FF
(1774515061.708996) can0 124#FE071FC7510A1B08
(1774515061.718659) can0 123#FF0047431DB6DCFF
(1774515061.719008) can0 124#FF071FEE3B0A1008
(1774515061.728672) can0 123#000047431CFAC6FF
(1774515061.728750) can0 124#000720150A0A0408
(1774515061.738598) can0 123#010047431C4E5EFF
(1774515061.738748) can0 124#0107203BF309F908
(1774515061.748470) can0 123#020047431B9249FF
(1774515061.748619) can0 124#02072062C109ED08
(1774515061.758373) can0 123#030047431AD634FF
(1774515061.758571) can0 124#03072089AD09E108
(1774515061.768261) can0 123#040047431A29CCFF
(1774515061.768401) can0 124#040720B07909D608
(1774515061.778182) can0 123#05004743196DB7FF
(1774515061.778475) can0 124#050720D75E09CA08
(1774515061.788081) can0 123#0600474318D0FBFF
(1774515061.788319) can0 124#060720FE3009C008
(1774515061.798013) can0 123#07004743180539FF
(1774515061.798129) can0 124#070721251609B308
(1774515061.807908) can0 123#08004743174925FF
(1774515061.808111) can0 124#0807214BE109A708
(1774515061.818021) can0 123#09004743169CBCFF
(1774515061.818047) can0 124#09072172C5099C08
(1774515061.827755) can0 123#0A00474315E0A7FF
(1774515061.827962) can0 124#0A07219991099008
(1774515061.837879) can0 123#0B00474315343EFF
(1774515061.837919) can0 124#0B0721C078098508
(1774515061.847552) can0 123#0C0047431487D6FF
(1774515061.847585) can0 124#0C0721E743097A08
(1774515061.857337) can0 123#0D00474313BC15FF
(1774515061.857534) can0 124#0D07220E2D096D08
(1774515061.867372) can0 123#0E004643130FADFF
(1774515061.867539) can0 124#0E072234F8096208
(1774515061.877236) can0 123#0F004643125397FF
(1774515061.877364) can0 124#0F07225BE2095608
(1774515061.887299) can0 123#1000474311A72FFF
(1774515061.887493) can0 124#10072282B2094B08
(1774515061.897056) can0 123#1100474310EB1AFF
(1774515061.897227) can0 124#110722A99A093F08
(1774515061.907114) can0 123#12004743103EB2FF
(1774515061.907213) can0 124#120722D064093408
(1774515061.917000) can0 123#130047430F829DFF
(1774515061.917049) can0 124#130722F747092808
(1774515061.926926) can0 123#140047430ED635FF
(1774515061.926980) can0 124#1407231E18091D08
(1774515061.936794) can0 123#150047430E1A1FFF
(1774515061.936834) can0 124#15072344FE091108
(1774515061.946547) can0 123#160047430D5E0BFF
(1774515061.946644) can0 124#1607236BCF090508
(1774515061.956278) can0 123#170047430CA1F5FF
(1774515061.956586) can0 124#17072392B508F908
(1774515061.966370) can0 123#180046430BF58DFF
(1774515061.966723) can0 124#180723B97C08EE08
(1774515061.976262) can0 123#190046430B3978FF
(1774515061.976471) can0 124#190723E06108E208
(1774515061.986036) can0 123#1A0046430A9CBCFF
(1774515061.986374) can0 124#1A0724073508D808
(1774515061.996172) can0 123#1B00464309D0FBFF
(1774515061.996223) can0 124#1B07242E1C08CB08
(1774515062.005849) can0 123#1C0046430914E6FF
(1774515062.006075) can0 124#1C072454EB08BF08
(1774515062.015923) can0 123#1D00464308687DFF
(1774515062.016327) can0 124#1D07247BD108B408
(1774515062.025764) can0 123#1E00464307AC69FF
(1774515062.026199) can0 124#1E0724A29808A808
(1774515062.035601) can0 123#1F004643070000FF
(1774515062.035731) can0 124#1F0724C980089D08
(1774515062.045646) can0 123#20004643065397FF
(1774515062.045663) can0 124#200724F050089208
(1774515062.055686) can0 123#210046430587D6FF
(1774515062.055724) can0 124#2107251738088508
(1774515062.065163) can0 123#2200464304DB6EFF
(1774515062.065477) can0 124#2207253E06087A08
(1774515062.075085) can0 123#23004643041F59FF
(1774515062.075483) can0 124#23072564EB086E08
(1774515062.085216) can0 123#240046430372F0FF
(1774515062.085262) can0 124#2407258BBA086308
(1774515062.094831) can0 123#2500464302B6DBFF
(1774515062.095124) can0 124#250725B2A0085708
(1774515062.104757) can0 123#26004643020A73FF
(1774515062.104961) can0 124#260725D96B084C08
(1774515062.114698) can0 123#27004643014E5EFF
(1774515062.114947) can0 124#270726005D084008
(1774515062.124541) can0 123#28004643009249FF
(1774515062.124855) can0 124#280726271E083408
(1774515062.134477) can0 123#29004642FFEB1AFF
(1774515062.134625) can0 124#2907264E08082A08
(1774515062.144388) can0 123#2A004642FE5397FF
(1774515062.144510) can0 124#2A072674D6081D08
(1774515062.154202) can0 123#2B004642FCDB6EFF
(1774515062.154489) can0 124#2B07269BBB081108
(1774515062.164181) can0 123#2C004642FB829DFF
(1774515062.164333) can0 124#2C0726C289080608
(1774515062.174299) can0 123#2D004642FA0A73FF
(1774515062.174339) can0 124#2D0726E97007FA08
(1774515062.184057) can0 123#2E004642F8B1A2FF
(1774515062.184200) can0 124#2E0727103C07EF08
(1774515062.193913) can0 123#2F004642F758D1FF
(1774515062.194339) can0 124#2F0727372807E408
(1774515062.203776) can0 123#30004642F5C14FFF
(1774515062.204052) can0 124#3007275DFB07D708
(1774515062.213733) can0 123#31004642F4687DFF
(1774515062.213922) can0 124#31072784E607CC08
(1774515062.223821) can0 123#32004642F2F054FF
(1774515062.224027) can0 124#320727ABB407C008
(1774515062.233624) can0 123#33004642F19783FF
(1774515062.233875) can0 124#330727D29D07B508
(1774515062.243371) can0 123#34004642F01F59FF
(1774515062.243494) can0 124#340727F96B07A908
(1774515062.253238) can0 123#35004642EEC687FF
(1774515062.253401) can0 124#3507282054079E08
(1774515062.263019) can0 123#36004642ED4E5EFF
(1774515062.263294) can0 124#3607284724079208
(1774515062.272949) can0 123#37004642EBD634FF
(1774515062.273166) can0 124#3707286E0E078608
(1774515062.282822) can0 123#38004642EA5E0AFF
(1774515062.283022) can0 124#38072894E1077A08
(1774515062.292863) can0 123#39004642E90539FF
(1774515062.292901) can0 124#390728BBCD076F08
(1774515062.302583) can0 123#3A004642E78D10FF
(1774515062.302795) can0 124#3A0728E2A5076308
(1774515062.312526) can0 123#3B004642E614E6FF
(1774515062.312703) can0 124#3B0729098F075708
(1774515062.322409) can0 123#3C004642E4BC14FF
(1774515062.322601) can0 124#3C07293057074C08
(1774515062.332361) can0 123#3D004642E36343FF
(1774515062.332528) can0 124#3D0729573E074108
(1774515062.342313) can0 123#3E004642E1EB1AFF
(1774515062.342455) can0 124#3E07297E0C073508
(1774515062.352067) can0 123#3F004642E072F1FF
(1774515062.352265) can0 124#3F0729A4EB072908
(1774515062.361977) can0 123#40004642DEFAC6FF
(1774515062.362181) can0 124#400729CBBF071D08
(1774515062.372069) can0 123#41004642DDA1F5FF
(1774515062.372079) can0 124#410729F2A4071208
(1774515062.381781) can0 123#42004642DC29CCFF
(1774515062.382082) can0 124#42072A1970070608
(1774515062.391704) can0 123#43004642DAF053FF
(1774515062.391991) can0 124#43072A405306FC08
(1774515062.401540) can0 123#44004642D958D0FF
(1774515062.401749) can0 124#44072A671906EF08
(1774515062.411658) can0 123#45004642D7E0A7FF
(1774515062.411672) can0 124#45072A8E0006E308
(1774515062.421438) can0 123#46004642D687D6FF
(1774515062.421737) can0 124#46072AB4CA06D808
(1774515062.431247) can0 123#47004742D50FADFF
(1774515062.431625) can0 124#47072ADBB606CC08
(1774515062.441301) can0 123#48004742D3B6DCFF
(1774515062.441408) can0 124#48072B028506C108
(1774515062.451026) can0 123#49004742D25E0BFF
(1774515062.451255) can0 124#49072B296706B608
(1774515062.460948) can0 123#4A004642D0C688FF
(1774515062.461149) can0 124#4A072B502C06A908
(1774515062.470821) can0 123#4B004642CF6DB7FF
(1774515062.471023) can0 124#4B072B770D069E08
(1774515062.480697) can0 123#4C004742CE14E6FF
(1774515062.480962) can0 124#4C072B9DDD069308
(1774515062.490664) can0 123#4D004742CC9CBCFF
(1774515062.490867) can0 124#4D072BC4BD068708
(1774515062.500471) can0 123#4E004742CB2492FF
(1774515062.500707) can0 124#4E072BEB84067B08
(1774515062.510372) can0 123#4F004742C9AC69FF
(1774515062.510636) can0 124#4F072C1269066F08
(1774515062.520316) can0 123#50004742C85398FF
(1774515062.520507) can0 124#50072C392E066408
(1774515062.530355) can0 123#51004742C6DB6EFF
(1774515062.530410) can0 124#51072C600E065808
(1774515062.540115) can0 123#52004742C5A1F5FF
(1774515062.540277) can0 124#52072C86D3064E08
(1774515062.550081) can0 123#53004742C40A73FF
(1774515062.550215) can0 124#53072CADB4064108
(1774515062.559886) can0 123#54004742C29249FF
(1774515062.560110) can0 124#54072CD47F063508
(1774515062.569832) can0 123#55004742C13978FF
(1774515062.570005) can0 124#55072CFB5C062A08
(1774515062.579737) can0 123#56004642BFC14EFF
(1774515062.579857) can0 124#56072D221F061E08
(1774515062.589603) can0 123#57004642BE687EFF
(1774515062.589795) can0 124#57072D48FE061308
(1774515062.599556) can0 123#58004642BD0FADFF
(1774515062.599697) can0 124#58072D6FC9060808
(1774515062.609361) can0 123#59004642BB782AFF
(1774515062.609593) can0 124#59072D96A905FB08
(1774515062.619295) can0 123#5A004642BA1F59FF
(1774515062.619472) can0 124#5A072DBD7305F008
(1774515062.629161) can0 123#5B004642B8A72EFF
(1774515062.629387) can0 124#5B072DE45605E408
(1774515062.640565) can0 123#5C004642B74E5DFF
(1774515062.640606) can0 124#5C072E0B2805D908
(1774515062.649168) can0 123#5D004642B5D634FF
(1774515062.649177) can0 124#5D072E321005CD08
(1774515062.658922) can0 123#5E004642B45E0BFF
(1774515062.659086) can0 124#5E072E58D305C108
(1774515062.668914) can0 123#5F004642B30539FF
(1774515062.668973) can0 124#5F072E7FB505B608
(1774515062.678737) can0 123#60004642B18D10FF
(1774515062.678895) can0 124#60072EA68205AA08
(1774515062.688561) can0 123#61004642B0343FFF
(1774515062.688759) can0 124#61072ECD68059F08
(1774515062.698441) can0 123#62004642AEBC15FF
(1774515062.698637) can0 124#62072EF434059308
(1774515062.708319) can0 123#63004642AD43EBFF
(1774515062.708596) can0 124#63072F1B1C058708
(1774515062.718248) can0 123#64004642ABEB1AFF
(1774515062.718471) can0 124#64072F41F4057C08
(1774515062.728209) can0 123#65004642AA72F0FF
(1774515062.728391) can0 124#65072F68DB057008
(1774515062.738113) can0 123#66004642A8FAC7FF
(1774515062.738312) can0 124#66072F8FAC056408
(1774515062.747944) can0 123#67004642A7C14FFF
(1774515062.748130) can0 124#67072FB697055A08
(1774515062.757905) can0 123#68004642A629CCFF
(1774515062.758047) can0 124#68072FDD69054D08
(1774515062.767706) can0 123#69004642A4B1A2FF
(1774515062.768007) can0 124#6907300452054108
(1774515062.777666) can0 123#6A004642A358D1FF
(1774515062.777833) can0 124#6A07302B21053608
(1774515062.787596) can0 123#6B004642A1E0A7FF
(1774515062.787761) can0 124#6B07305211052A08
(1774515062.797497) can0 123#6C004642A087D7FF
(1774515062.797639) can0 124#6C073078DE051F08
(1774515062.807467) can0 123#6D0046429F2F05FF
(1774515062.807557) can0 124#6D07309FCB051408
(1774515062.817230) can0 123#6E0046429D9783FF
(1774515062.817418) can0 124#6E0730C69B050708
(1774515062.827142) can0 123#6F0046429C3EB2FF
(1774515062.827284) can0 124#6F0730ED7F04FC08
(1774515062.837064) can0 123#700046429AE5E0FF
(1774515062.837216) can0 124#700731144D04F108
(1774515062.847006) can0 123#71004642996DB7FF
(1774515062.847130) can0 124#7107313B3004E508
(1774515062.856899) can0 123#7200464297F58DFF
(1774515062.857047) can0 124#72073161FD04D908
(1774515062.866782) can0 123#73004642969CBCFF
(1774515062.866931) can0 124#73073188E304CE08
(1774515062.876633) can0 123#74004642952492FF
(1774515062.876806) can0 124#740731AFAF04C208
(1774515062.886582) can0 123#7500464293AC69FF
(1774515062.886698) can0 124#750731D69104B608
(1774515062.896423) can0 123#760046429272F0FF
(1774515062.896588) can0 124#760731FD5D04AC08
(1774515062.906353) can0 123#7700464290DB6EFF
(1774515062.906515) can0 124#7707322443049F08
(1774515062.916200) can0 123#780046428F6344FF
(1774515062.916380) can0 124#7807324B10049308
(1774515062.926233) can0 123#790046428E0A73FF
(1774515062.926335) can0 124#79073271F7048808
(1774515062.936105) can0 123#7A0046428C9249FF
(1774515062.936200) can0 124#7A073298C2047C08
(1774515062.946034) can0 123#7B0046428B3978FF
(1774515062.946141) can0 124#7B0732BFAA047108
(1774515062.955847) can0 123#7C00464289E0A7FF
(1774515062.956082) can0 124#7C0732E67A046608
(1774515062.965803) can0 123#7D004642884924FF
(1774515062.966019) can0 124#7D07330D60045908
(1774515062.975702) can0 123#7E00464286F053FF
(1774515062.975816) can0 124#7E0733342D044E08
(1774515062.985672) can0 123#7F004642859783FF
(1774515062.985769) can0 124#7F07335B12044308
(1774515062.995627) can0 123#80004642841F59FF
(1774515062.995634) can0 124#80073381E0043708
(1774515063.005501) can0 123#8100464282A72FFF
(1774515063.005561) can0 124#810733A8C8042B08
(1774515063.015332) can0 123#82004642814E5EFF
(1774515063.015557) can0 124#820733CF94042008
(1774515063.025206) can0 123#830046427FAC68FF
(1774515063.025398) can0 124#830733F676041408
(1774515063.035129) can0 123#840046427CBC14FF
(1774515063.035281) can0 124#8407341D3F040808
(1774515063.044937) can0 123#850046427A0A73FF
(1774515063.045095) can0 124#850734442303FD08
(1774515063.054887) can0 123#86004642771A20FF
(1774515063.055015) can0 124#8607346AEA03F108
(1774515063.064748) can0 123#870046427429CCFF
(1774515063.064837) can0 124#87073491D103E508
(1774515063.074624) can0 123#8800464271782AFF
(1774515063.074729) can0 124#880734B89A03DA08
(1774515063.084542) can0 123#890046426E87D6FF
(1774515063.084700) can0 124#890734DF7E03CE08
(1774515063.094344) can0 123#8A0046426C14E7FF
(1774515063.094518) can0 124#8A0735064D03C408
(1774515063.104318) can0 123#8B004642692493FF
(1774515063.104426) can0 124#8B07352D3203B808
(1774515063.114157) can0 123#8C00464265F58DFF
(1774515063.114296) can0 124#8C073553F903AB08
(1774515063.124035) can0 123#8D0046426343EBFF
(1774515063.124291) can0 124#8D07357ADF03A008
(1774515063.134080) can0 123#8E004642605397FF
(1774515063.134179) can0 124#8E0735A1AC039408
(1774515063.143885) can0 123#8F0046425DA1F5FF
(1774515063.144015) can0 124#8F0735C88D038908
(1774515063.153786) can0 123#900046425AB1A1FF
(1774515063.153928) can0 124#900735EF61037D08
(1774515063.163600) can0 123#91004642580001FF
(1774515063.163832) can0 124#9107361647037208
(1774515063.173486) can0 123#92004642550FADFF
(1774515063.173690) can0 124#9207363D11036608
(1774515063.183409) can0 123#93004642521F59FF
(1774515063.183649) can0 124#93073663F3035A08
(1774515063.193304) can0 123#940046424F6DB7FF
(1774515063.193531) can0 124#9407368ABD034F08
(1774515063.203334) can0 123#950046424C7D63FF
(1774515063.203427) can0 124#950736B199034308
(1774515063.213088) can0 123#96004642498D0FFF
(1774515063.213276) can0 124#960736D862033708
(1774515063.223014) can0 123#9700464246DB6EFF
(1774515063.223185) can0 124#970736FF40032C08
(1774515063.232888) can0 123#9800464243EB1BFF
(1774515063.233061) can0 124#9807372608032008
(1774515063.242862) can0 123#9900474240FAC7FF
(1774515063.242980) can0 124#9907374CEC031408
(1774515063.252714) can0 123#9A0047423E4925FF
(1774515063.252922) can0 124#9A073773B5030908
(1774515063.262640) can0 123#9B0047423B58D1FF
(1774515063.262920) can0 124#9B07379A9B02FD08
(1774515063.272497) can0 123#9C00474238A72EFF
(1774515063.272806) can0 124#9C0737C16902F208
(1774515063.282547) can0 123#9D00474235B6DCFF
(1774515063.282613) can0 124#9D0737E85102E608
(1774515063.292428) can0 123#9E00464232C688FF
(1774515063.292485) can0 124#9E07380F1A02DA08
(1774515063.302357) can0 123#9F0046423014E6FF
(1774515063.302427) can0 124#9F0738360302CF08
(1774515063.312197) can0 123#A00047422D6344FF
(1774515063.312278) can0 124#A007385CD502C408
(1774515063.322026) can0 123#A10047422A72F0FF
(1774515063.322286) can0 124#A1073883BE02B808
(1774515063.332051) can0 123#A200474227829DFF
(1774515063.332060) can0 124#A20738AA8802AC08
(1774515063.341732) can0 123#A3004742249249FF
(1774515063.342126) can0 124#A30738D17002A008
(1774515063.351756) can0 123#A400474221E0A7FF
(1774515063.351843) can0 124#A40738F83E029508
(1774515063.361587) can0 123#A50046421EF054FF
(1774515063.361935) can0 124#A507391F20028908
(1774515063.371585) can0 123#A60047421C3EB2FF
(1774515063.371737) can0 124#A6073945F5027E08
(1774515063.381395) can0 123#A7004742194E5EFF
(1774515063.381554) can0 124#A707396CDD027208
(1774515063.391290) can0 123#A8004742169CBCFF
(1774515063.391432) can0 124#A8073993AB026708
(1774515063.401172) can0 123#A900474213AC69FF
(1774515063.401342) can0 124#A90739BA8C025B08
(1774515063.411054) can0 123#AA00474210BC15FF
(1774515063.411232) can0 124#AA0739E15B024F08
(1774515063.421066) can0 123#AB0047420DCBC2FF
(1774515063.421141) can0 124#AB073A083F024308
(1774515063.430984) can0 123#AC0047420B1A1FFF
(1774515063.431079) can0 124#AC073A2F0D023808
(1774515063.440788) can0 123#AD0047420829CCFF
(1774515063.440935) can0 124#AD073A55F4022C08
(1774515063.450687) can0 123#AE00474205B6DCFF
(1774515063.450834) can0 124#AE073A7CC2022208
(1774515063.460546) can0 123#AF0047420287D6FF
(1774515063.460720) can0 124#AF073AA3A6021508
(1774515063.470450) can0 123#B0004741FF2F05FF
(1774515063.470612) can0 124#B0073ACA6D020908
(1774515063.480377) can0 123#B1004741F9CBC2FF
(1774515063.480525) can0 124#B1073AF15501FE08
(1774515063.490200) can0 123#B2004641F3EB1AFF
(1774515063.490510) can0 124#B2073B181E01F208
(1774515063.500131) can0 123#B3004641EE87D6FF
(1774515063.500303) can0 124#B3073B3F0D01E708
(1774515063.510061) can0 123#B4004641E92493FF
(1774515063.510226) can0 124#B4073B65DF01DC08
(1774515063.519957) can0 123#B5004641E2C688FF
(1774515063.520096) can0 124#B5073B8CC201CF08
(1774515063.529780) can0 123#B6004641DD6344FF
(1774515063.530040) can0 124#B6073BB38D01C408
(1774515063.539710) can0 123#B7004641D7829CFF
(1774515063.539922) can0 124#B7073BDA7201B808
(1774515063.549598) can0 123#B8004641D21F59FF
(1774515063.549807) can0 124#B8073C013D01AD08
(1774515063.559534) can0 123#B9004641CC3EB1FF
(1774515063.559733) can0 124#B9073C282201A108
(1774515063.569522) can0 123#BA004641C65E0AFF
(1774515063.569742) can0 124#BA073C4EEC019508
(1774515063.579303) can0 123#BB004641C0FAC7FF
(1774515063.579490) can0 124#BB073C75CD018A08
(1774515063.589242) can0 123#BC004641BB1A1FFF
(1774515063.589385) can0 124#BC073C9C9A017E08
(1774515063.599144) can0 123#BD004641B6343FFF
(1774515063.599262) can0 124#BD073CC37B017408
(1774515063.609731) can0 123#BE004641AFD635FF
(1774515063.609745) can0 124#BE073CEA40016708
(1774515063.618871) can0 123#BF004641A9F58DFF
(1774515063.619056) can0 124#BF073D1124015B08
(1774515063.628739) can0 123#C0004641A49249FF
(1774515063.628977) can0 124#C0073D37F0015008
(1774515063.638703) can0 123#C10046419EB1A2FF
(1774515063.638896) can0 124#C1073D5ED5014408
(1774515063.648607) can0 123#C2004641994E5EFF
(1774515063.648858) can0 124#C2073D85A1013908
(1774515063.658502) can0 123#C300464193EB1AFF
(1774515063.658774) can0 124#C3073DAC89012E08
(1774515063.668403) can0 123#C40046418D8D0FFF
(1774515063.668606) can0 124#C4073DD34E012108
(1774515063.678275) can0 123#C50046418829CCFF
(1774515063.678489) can0 124#C5073DFA2E011608
(1774515063.688137) can0 123#C6004641824925FF
(1774515063.688354) can0 124#C6073E20F9010A08
(1774515063.698061) can0 123#C700464179CBC2FF
(1774515063.698335) can0 124#C7073E47DD00FF08
(1774515063.707905) can0 123#C80046416E0A73FF
(1774515063.708147) can0 124#C8073E6EA500F308
(1774515063.717901) can0 123#C90046416343EBFF
(1774515063.718065) can0 124#C9073E958A00E808
(1774515063.727816) can0 123#CA00464157829CFF
(1774515063.727979) can0 124#CA073EBC6500DC08
(1774515063.737678) can0 123#CB0046414BC14EFF
(1774515063.737893) can0 124#CB073EE33E00D008
(1774515063.747616) can0 123#CC00464140FAC7FF
(1774515063.747737) can0 124#CC073F0A1300C508
(1774515063.757469) can0 123#CD004641353978FF
(1774515063.757757) can0 124#CD073F30FB00B908
(1774515063.767392) can0 123#CE00464129782AFF
(1774515063.767577) can0 124#CE073F57CA00AD08
(1774515063.777213) can0 123#CF0046411EB1A2FF
(1774515063.777471) can0 124#CF073F7EAE00A208
(1774515063.787137) can0 123#D000464112F054FF
(1774515063.787315) can0 124#D0073FA578009608
(1774515063.797048) can0 123#D1004641072F06FF
(1774515063.797249) can0 124#D1073FCC5B008A08
(1774515063.806950) can0 123#D2004640FAC688FF
(1774515063.807156) can0 124#D2073FF329008008
(1774515063.816813) can0 123#D3004640E14E5EFF
(1774515063.817125) can0 124#D307401A0D007308
(1774515063.826744) can0 123#D4004640CBC14EFF
(1774515063.826963) can0 124#D4074040D8006808
(1774515063.836613) can0 123#D5004640B43EB2FF
(1774515063.836817) can0 124#D5074067BC005C08
(1774515063.846531) can0 123#D60046409CBC15FF
(1774515063.846744) can0 124#D607408E85005008
(1774515063.856457) can0 123#D7004640872F06FF
(1774515063.856757) can0 124#D70740B562004508
(1774515063.866352) can0 123#D80046406343EBFF
(1774515063.866491) can0 124#D80740DC2F003A08
(1774515063.876208) can0 123#D9004640305398FF
(1774515063.876385) can0 124#D907410310002D08
(1774515063.886126) can0 123#DA004640053978FF
(1774515063.886438) can0 124#DA074129DB002208
(1774515063.896450) can0 123#DB00463FAC687EFF
(1774515063.896468) can0 124#DB074150B7001608
(1774515063.905919) can0 123#DC00463F2C687EFF
(1774515063.906118) can0 124#DC0741777E000B08
(1774515063.915805) can0 123#DD004643B3F82AFF
(1774515063.915978) can0 124#DD07419E6016F708
(1774515063.925716) can0 123#DE004643B39A20FF
(1774515063.925847) can0 124#DE0741C52916EB08
(1774515063.935616) can0 123#DF004643B343EBFF
(1774515063.935830) can0 124#DF0741EC0D16E008
(1774515063.945531) can0 123#E0004643B2E5E0FF
(1774515063.945667) can0 124#E0074212D016D408
(1774515063.955410) can0 123#E1004643B29783FF
(1774515063.955564) can0 124#E1074239AE16CA08
(1774515063.965436) can0 123#E2004643B231A2FF
(1774515063.965442) can0 124#E20742607916BD08
(1774515063.975255) can0 123#E3004643B1D398FF
(1774515063.975346) can0 124#E30742875916B108
(1774515063.985097) can0 123#E4004643B17D63FF
(1774515063.985229) can0 124#E40742AE2316A608
(1774515063.995007) can0 123#E5004643B11F59FF
(1774515063.995169) can0 124#E50742D503169A08
(1774515064.004847) can0 123#E6004643B0C925FF
(1774515064.005027) can0 124#E60742FBC1168F08
(1774515064.014763) can0 123#E7004643B072F0FF
(1774515064.014946) can0 124#E7074322A0168408
(1774515064.024647) can0 123#E8004643B00D0FFF
(1774515064.024851) can0 124#E807434966167708
(1774515064.034557) can0 123#E9004643AFB6DBFF
(1774515064.034729) can0 124#E907437048166C08
(1774515064.044460) can0 123#EA004643AF58D1FF
(1774515064.044619) can0 124#EA07439711166008
(1774515064.054427) can0 123#EB004743AF029DFF
(1774515064.054530) can0 124#EB0743BDFB165508
(1774515064.064214) can0 123#EC004743AEA492FF
(1774515064.064556) can0 124#EC0743E4C2164908
(1774515064.074132) can0 123#ED004643AE4688FF
(1774515064.074364) can0 124#ED07440B9C163D08
(1774515064.084058) can0 123#EE004643ADF054FF
(1774515064.084259) can0 124#EE07443266163208
(1774515064.093982) can0 123#EF004743AD9249FF
(1774515064.094219) can0 124#EF07445950162608
(1774515064.103905) can0 123#F0004743AD3C15FF
(1774515064.104071) can0 124#F00744801B161B08
(1774515064.113852) can0 123#F1004643ACDE0BFF
(1774515064.113998) can0 124#F10744A6F4160F08
(1774515064.123743) can0 123#F2004643AC8000FF
(1774515064.123902) can0 124#F20744CDBB160308
(1774515064.133582) can0 123#F3004743AC29CBFF
(1774515064.133783) can0 124#F30744F4A415F808
(1774515064.143528) can0 123#F4004743ABCBC1FF
(1774515064.143768) can0 124#F407451B7015EC08
(1774515064.153461) can0 123#F5004743AB6DB7FF
(1774515064.153584) can0 124#F50745425315E008
(1774515064.163303) can0 123#F6004743AB1F59FF
(1774515064.163528) can0 124#F60745692215D608
(1774515064.173170) can0 123#F7004743AAB978FF
(1774515064.173357) can0 124#F70745900315C908
(1774515064.183124) can0 123#F8004743AA6344FF
(1774515064.183264) can0 124#F80745B6C915BE08
(1774515064.192970) can0 123#F9004743AA053AFF
(1774515064.193230) can0 124#F90745DDAB15B208
(1774515064.202948) can0 123#FA004743A9A72FFF
(1774515064.203115) can0 124#FA0746046F15A608
(1774515064.212787) can0 123#FB004743A950FAFF
(1774515064.212981) can0 124#FB07462B4E159B08
(1774515064.222730) can0 123#FC004743A8F2F0FF
(1774515064.222873) can0 124#FC07465212158F08
(1774515064.232641) can0 123#FD004743A894E6FF
(1774515064.232906) can0 124#FD074678EC158308
(1774515064.242533) can0 123#FE004743A83EB2FF
(1774515064.242742) can0 124#FE07469FB0157808
(1774515064.252395) can0 123#FF004743A7E87DFF
(1774515064.252594) can0 124#FF0746C690156D08
(1774515064.262358) can0 123#00004643A78A73FF
(1774515064.262530) can0 124#000746ED52156108
(1774515064.272194) can0 123#01004643A72C69FF
(1774515064.272380) can0 124#0107471435155508
(1774515064.282246) can0 123#02004743A6CE5EFF
(1774515064.282267) can0 124#0207473B07154908
(1774515064.292128) can0 123#03004743A6782AFF
(1774515064.292147) can0 124#03074761E9153E08
(1774515064.301860) can0 123#04004743A61A1FFF
(1774515064.302029) can0 124#04074788AD153208
(1774515064.311800) can0 123#05004743A5CBC2FF
(1774515064.312107) can0 124#050747AF8A152808
(1774515064.321751) can0 123#06004743A565E1FF
(1774515064.321942) can0 124#060747D653151B08
(1774515064.331638) can0 123#07004743A507D6FF
(1774515064.331758) can0 124#070747FD35150F08
(1774515064.341617) can0 123#08004743A4B1A2FF
(1774515064.341982) can0 124#08074823FA150408
(1774515064.351627) can0 123#09004743A45398FF
(1774515064.351660) can0 124#0907484AE014F808
(1774515064.361276) can0 123#0A004743A3FD63FF
(1774515064.361410) can0 124#0A074871A914ED08
(1774515064.371187) can0 123#0B004743A3A72FFF
(1774515064.371357) can0 124#0B0748988B14E208
(1774515064.381063) can0 123#0C004743A3414EFF
(1774515064.381253) can0 124#0C0748BF4F14D508
(1774515064.390966) can0 123#0D004643A2EB1AFF
(1774515064.391242) can0 124#0D0748E62914CA08
(1774515064.400962) can0 123#0E004643A294E6FF
(1774515064.401196) can0 124#0E07490CF514BF08
(1774515064.410868) can0 123#0F004643A236DBFF
(1774515064.411046) can0 124#0F074933D214B308
(1774515064.420707) can0 123#10004643A1D8D1FF
(1774515064.420939) can0 124#1007495A9814A708
(1774515064.430578) can0 123#11004643A17AC7FF
(1774515064.430727) can0 124#110749817A149B08
(1774515064.440455) can0 123#12004643A12492FF
(1774515064.440600) can0 124#120749A840149008
(1774515064.450462) can0 123#13004643A0C688FF
(1774515064.450476) can0 124#130749CF24148408
(1774515064.460271) can0 123#14004643A0782AFF
(1774515064.460393) can0 124#140749F5E7147A08
(1774515064.470148) can0 123#15004643A01249FF
(1774515064.470270) can0 124#15074A1CCB146D08
(1774515064.479947) can0 123#160046439FB43EFF
(1774515064.480180) can0 124#16074A4392146108
(1774515064.489968) can0 123#170046439F5E0AFF
(1774515064.490134) can0 124#17074A6A73145608
(1774515064.499869) can0 123#180046439F0000FF
(1774515064.500094) can0 124#18074A913D144A08
(1774515064.509927) can0 123#190046439EA9CCFF
(1774515064.509950) can0 124#19074AB81D143F08
(1774515064.519910) can0 123#1A0046439E5397FF
(1774515064.519953) can0 124#1A074ADEE7143408
(1774515064.529821) can0 123#1B0046439DF58DFF
(1774515064.529851) can0 124#1B074B05C4142808
(1774515064.539633) can0 123#1C0046439D9783FF
(1774515064.539669) can0 124#1C074B2C8F141C08
(1774515064.549442) can0 123#1D0046439D3978FF
(1774515064.549492) can0 124#1D074B5372141008
(1774515064.559852) can0 123#1E0046439CE344FF
(1774515064.559889) can0 124#1E074B7A35140508
(1774515064.569147) can0 123#1F0046439C8539FF
(1774515064.569464) can0 124#1F074BA11513F908
(1774515064.579010) can0 123#200046439C272FFF
(1774515064.579316) can0 124#20074BC7D813ED08
(1774515064.588922) can0 123#210046439BD0FBFF
(1774515064.589062) can0 124#21074BEEB913E208
(1774515064.598822) can0 123#220046439B72F0FF
(1774515064.599070) can0 124#22074C158413D608
(1774515064.609146) can0 123#230046439B14E6FF
(1774515064.609161) can0 124#23074C3C6513CA08
(1774515064.618491) can0 123#240046439ABEB2FF
(1774515064.618810) can0 124#24074C632F13BF08
(1774515064.628490) can0 123#250046439A60A7FF
(1774515064.628657) can0 124#25074C8A0F13B308
(1774515064.638209) can0 123#260046439A0A73FF
(1774515064.638517) can0 124#26074CB0DA13A808
(1774515064.648249) can0 123#2700464399AC68FF
(1774515064.648427) can0 124#27074CD7B6139C08
(1774515064.658129) can0 123#28004643994E5EFF
(1774515064.658277) can0 124#28074CFE7B139008
(1774515064.668219) can0 123#2900464398F82AFF
(1774515064.668234) can0 124#29074D2560138508
(1774515064.677993) can0 123#2A00464398A1F5FF
(1774515064.678204) can0 124#2A074D4C2A137A08
(1774515064.687944) can0 123#2B004643983C15FF
(1774515064.688129) can0 124#2B074D730A136D08
(1774515064.697800) can0 123#2C00464397E5E1FF
(1774515064.698014) can0 124#2C074D99D3136208
(1774515064.707663) can0 123#2D0046439787D6FF
(1774515064.708098) can0 124#2D074DC0B6135608
(1774515064.717603) can0 123#2E0046439731A2FF
(1774515064.717914) can0 124#2E074DE784134B08
(1774515064.727514) can0 123#2F00464396D398FF
(1774515064.727690) can0 124#2F074E0E67133F08
(1774515064.737382) can0 123#3000464396758DFF
(1774515064.737585) can0 124#30074E3533133308
(1774515064.747315) can0 123#31004643961F59FF
(1774515064.747520) can0 124#31074E5C10132808
(1774515064.757101) can0 123#3200464395C14EFF
(1774515064.757304) can0 124#32074E82DB131C08
(1774515064.767024) can0 123#330046439572F1FF
(1774515064.767185) can0 124#33074EA9BD131208
(1774515064.777066) can0 123#34004643950D10FF
(1774515064.777101) can0 124#34074ED084130508
(1774515064.787062) can0 123#3500464394AF05FF
(1774515064.787086) can0 124#35074EF76712F908
(1774515064.796740) can0 123#360047439458D1FF
(1774515064.796951) can0 124#36074F1E3B12EE08
(1774515064.806641) can0 123#3700474393FAC7FF
(1774515064.806884) can0 124#37074F452112E208
(1774515064.816718) can0 123#3800474393A492FF
(1774515064.816763) can0 124#38074F6BEA12D708
(1774515064.826548) can0 123#39004743934E5EFF
(1774515064.826585) can0 124#39074F92D312CC08
(1774515064.836361) can0 123#3A00474392E87DFF
(1774515064.836532) can0 124#3A074FB99C12BF08
(1774515064.846234) can0 123#3B004743929249FF
(1774515064.846362) can0 124#3B074FE08312B408
(1774515064.856121) can0 123#3C00474392343FFF
(1774515064.856334) can0 124#3C0750074B12A808
(1774515064.866148) can0 123#3D00474391DE0AFF
(1774515064.866176) can0 124#3D07502E30129D08
(1774515064.875908) can0 123#3E004743918000FF
(1774515064.876160) can0 124#3E075054FE129108
(1774515064.885846) can0 123#3F0047439129CCFF
(1774515064.885975) can0 124#3F07507BE9128608
(1774515064.895672) can0 123#4000474390CBC1FF
(1774515064.895963) can0 124#400750A2B6127A08
(1774515064.905542) can0 123#41004743906DB7FF
(1774515064.905859) can0 124#410750C9A0126E08
(1774515064.915497) can0 123#42004743901783FF
(1774515064.915950) can0 124#420750F06F126308
(1774515064.925412) can0 123#430047438FB978FF
(1774515064.925734) can0 124#4307511754125708
(1774515064.935264) can0 123#440047438F5B6EFF
(1774515064.935543) can0 124#4407513E22124B08
(1774515064.945206) can0 123#450047438EFD63FF
(1774515064.945402) can0 124#450751650B123F08
(1774515064.955050) can0 123#460047438EA72FFF
(1774515064.955271) can0 124#4607518BD3123408
(1774515064.965047) can0 123#470047438E4925FF
(1774515064.965195) can0 124#470751B2BF122808
(1774515064.974883) can0 123#480047438DFAC6FF
(1774515064.975024) can0 124#480751D98C121E08
(1774515064.984749) can0 123#490047438D94E6FF
(1774515064.984929) can0 124#4907520071121108
(1774515064.994645) can0 123#4A0047438D36DBFF
(1774515064.994779) can0 124#4A0752273D120508
(1774515065.004630) can0 123#4B0047438CE0A7FF
(1774515065.004900) can0 124#4B07524E2611FA08
(1774515065.014479) can0 123#4C0047438C829DFF
(1774515065.014623) can0 124#4C075274FA11EE08
(1774515065.024602) can0 123#4D0047438C2C68FF
(1774515065.024625) can0 124#4D07529BE111E308
(1774515065.034458) can0 123#4E0047438BD634FF
(1774515065.034477) can0 124#4E0752C2AF11D808
(1774515065.044487) can0 123#4F0047438B7054FF
(1774515065.044508) can0 124#4F0752E99011CB08
(1774515065.054158) can0 123#500047438B1A1FFF
(1774515065.054334) can0 124#500753105C11C008
(1774515065.063997) can0 123#510047438ABC15FF
(1774515065.064234) can0 124#510753373F11B408
(1774515065.073835) can0 123#520047438A65E1FF
(1774515065.074160) can0 124#5207535E0F11A908
(1774515065.083737) can0 123#530047438A07D7FF
(1774515065.083907) can0 124#53075384F3119D08
(1774515065.093673) can0 123#5400474389B1A2FF
(1774515065.093857) can0 124#540753ABC5119208
(1774515065.103597) can0 123#55004743895397FF
(1774515065.103853) can0 124#550753D2A3118608
(1774515065.113415) can0 123#5600474388F58DFF
(1774515065.113620) can0 124#560753F96B117A08
(1774515065.123381) can0 123#57004743889F59FF
(1774515065.123499) can0 124#5707542056116F08
(1774515065.133255) can0 123#5800474388414EFF
(1774515065.133436) can0 124#5807544727116308
(1774515065.143340) can0 123#5900474387E344FF
(1774515065.143359) can0 124#5907546E0E115708
(1774515065.153227) can0 123#5A00474387853AFF
(1774515065.153248) can0 124#5A075494D9114B08
(1774515065.162858) can0 123#5B004743872F06FF
(1774515065.163105) can0 124#5B0754BBB9114008
(1774515065.172933) can0 123#5C00474386D0FAFF
(1774515065.172951) can0 124#5C0754E281113408
(1774515065.182725) can0 123#5D004643867AC6FF
(1774515065.182876) can0 124#5D0755095D112908
(1774515065.192655) can0 123#5E004643862492FF
(1774515065.192852) can0 124#5E07553028111E08
(1774515065.202680) can0 123#5F00464385BEB2FF
(1774515065.202702) can0 124#5F0755570A111108
(1774515065.212422) can0 123#6000464385687DFF
(1774515065.212515) can0 124#6007557DD1110608
(1774515065.222544) can0 123#61004643850A73FF
(1774515065.222561) can0 124#610755A4B310FA08
(1774515065.232265) can0 123#6200464384B43FFF
(1774515065.232551) can0 124#620755CB8010EF08
(1774515065.242114) can0 123#63004643845634FF
(1774515065.242325) can0 124#630755F25B10E308
(1774515065.252194) can0 123#64004643840000FF
(1774515065.252241) can0 124#640756192310D808
(1774515065.261861) can0 123#6500464383A1F6FF
(1774515065.262233) can0 124#650756400710CC08
(1774515065.271896) can0 123#660046438343EBFF
(1774515065.272123) can0 124#66075666D210C008
(1774515065.281713) can0 123#6700464382EDB7FF
(1774515065.281879) can0 124#6707568DB210B508
(1774515065.291635) can0 123#68004643828FACFF
(1774515065.291943) can0 124#680756B47B10A908
(1774515065.301443) can0 123#690046438231A2FF
(1774515065.301627) can0 124#690756DB5C109D08
(1774515065.311483) can0 123#6A00464381DB6EFF
(1774515065.311630) can0 124#6A07570226109208
(1774515065.321442) can0 123#6B004643817D63FF
(1774515065.321545) can0 124#6B07572907108608
(1774515065.331202) can0 123#6C004643811F59FF
(1774515065.331594) can0 124#6C07574FD1107A08
(1774515065.341122) can0 123#6D00464380D0FBFF
(1774515065.341360) can0 124#6D075776B7107008
(1774515065.350999) can0 123#6E004643806B1AFF
(1774515065.351247) can0 124#6E07579D83106308
(1774515065.361291) can0 123#6F004643800D10FF
(1774515065.361333) can0 124#6F0757C463105708
(1774515065.370766) can0 123#700046437F6DB7FF
(1774515065.370906) can0 124#700757EB2B104C08
(1774515065.380673) can0 123#710046437EB1A2FF
(1774515065.380824) can0 124#710758120C104008
(1774515065.390810) can0 123#720046437E0539FF
(1774515065.390854) can0 124#72075838CF103508
(1774515065.400511) can0 123#730046437D58D1FF
(1774515065.400676) can0 124#7307585FB0102A08
(1774515065.410362) can0 123#740046437C8D10FF
(1774515065.410499) can0 124#7407588677101D08
(1774515065.420271) can0 123#750046437BE0A8FF
(1774515065.420423) can0 124#750758AD58101208
(1774515065.430226) can0 123#760046437B343FFF
(1774515065.430432) can0 124#760758D421100708
(1774515065.440053) can0 123#770046437A7829FF
(1774515065.440250) can0 124#770758FB000FFB08
(1774515065.449925) can0 123#7800464379BC14FF
(1774515065.450146) can0 124#78075921C40FEF08
(1774515065.460114) can0 123#79004643790000FF
(1774515065.460166) can0 124#79075948A20FE308
(1774515065.469910) can0 123#7A004643785397FF
(1774515065.469950) can0 124#7A07596F680FD808
(1774515065.479673) can0 123#7B004643779783FF
(1774515065.479804) can0 124#7B075996460FCC08
(1774515065.489674) can0 123#7C00464376FAC6FF
(1774515065.489711) can0 124#7C0759BD0C0FC208
(1774515065.499396) can0 123#7D004643762F06FF
(1774515065.499639) can0 124#7D0759E3F40FB508
(1774515065.509316) can0 123#7E0046437572F1FF
(1774515065.509484) can0 124#7E075A0AB80FA908
(1774515065.519193) can0 123#7F00464374C688FF
(1774515065.519371) can0 124#7F075A319F0F9E08
(1774515065.529046) can0 123#80004643740A72FF
(1774515065.529256) can0 124#80075A586D0F9208
(1774515065.539237) can0 123#81004643735E0AFF
(1774515065.539266) can0 124#81075A7F520F8708
(1774515065.548920) can0 123#8200464372B1A1FF
(1774515065.549135) can0 124#82075AA61E0F7C08
(1774515065.558800) can0 123#8300464371E5E1FF
(1774515065.558953) can0 124#83075ACD030F6F08
(1774515065.568863) can0 123#84004643713978FF
(1774515065.568881) can0 124#84075AF3CE0F6408
(1774515065.578655) can0 123#85004643707D64FF
(1774515065.579094) can0 124#85075B1AB10F5808
(1774515065.588483) can0 123#860046436FD0FBFF
(1774515065.588667) can0 124#86075B417D0F4D08
(1774515065.598534) can0 123#870046436F14E6FF
(1774515065.598556) can0 124#87075B685B0F4108
(1774515065.608485) can0 123#880046436E687EFF
(1774515065.608529) can0 124#88075B8F200F3608
(1774515065.618216) can0 123#890046436DAC68FF
(1774515065.618442) can0 124#89075BB6070F2A08
(1774515065.628124) can0 123#8A0046436CF053FF
(1774515065.628377) can0 124#8A075BDCCD0F1E08
(1774515065.638207) can0 123#8B0046436C5398FF
(1774515065.638232) can0 124#8B075C03AE0F1408
(1774515065.647921) can0 123#8C0046436B87D6FF
(1774515065.648097) can0 124#8C075C2A7A0F0708
(1774515065.657722) can0 123#8D0046436ACBC1FF
(1774515065.658039) can0 124#8D075C515B0EFB08
(1774515065.667674) can0 123#8E0047436A1F59FF
(1774515065.667800) can0 124#8E075C782B0EF008
(1774515065.677536) can0 123#8F004743696344FF
(1774515065.677849) can0 124#8F075C9F0C0EE408
(1774515065.687455) can0 123#9000474368B6DCFF
(1774515065.687831) can0 124#90075CC5D40ED908
(1774515065.697338) can0 123#91004743680A73FF
(1774515065.697622) can0 124#91075CECB20ECE08
(1774515065.707407) can0 123#92004743673EB1FF
(1774515065.707453) can0 124#92075D137D0EC108
(1774515065.717393) can0 123#93004743669249FF
(1774515065.717423) can0 124#93075D3A590EB608
(1774515065.727117) can0 123#9400474365D634FF
(1774515065.727244) can0 124#94075D61210EAA08
(1774515065.737025) can0 123#950047436529CBFF
(1774515065.737201) can0 124#95075D88010E9F08
(1774515065.746930) can0 123#96004743646DB7FF
(1774515065.747123) can0 124#96075DAEC80E9308
(1774515065.756864) can0 123#9700474363C14EFF
(1774515065.756957) can0 124#97075DD5A50E8808
(1774515065.766597) can0 123#9800474363053AFF
(1774515065.766834) can0 124#98075DFC670E7C08
(1774515065.776646) can0 123#99004743624925FF
(1774515065.776740) can0 124#99075E234E0E7008
(1774515065.786570) can0 123#9A00474361AC69FF
(1774515065.786601) can0 124#9A075E4A170E6608
(1774515065.796419) can0 123#9B00474360E0A7FF
(1774515065.796888) can0 124#9B075E70FA0E5908
(1774515065.806440) can0 123#9C004743602492FF
(1774515065.806476) can0 124#9C075E97C10E4D08
(1774515065.816304) can0 123#9D0047435F7829FF
(1774515065.816354) can0 124#9D075EBEA00E4208
(1774515065.826037) can0 123#9E0047435EBC15FF
(1774515065.826223) can0 124#9E075EE56C0E3608
(1774515065.835950) can0 123#9F0047435E0000FF
(1774515065.836175) can0 124#9F075F0C500E2A08
(1774515065.845951) can0 123#A00047435D6344FF
(1774515065.846112) can0 124#A0075F331B0E2008
(1774515065.855742) can0 123#A10047435C9783FF
(1774515065.855966) can0 124#A1075F5A020E1308
(1774515065.865673) can0 123#A20047435BDB6DFF
(1774515065.866038) can0 124#A2075F80CE0E0708
(1774515065.875563) can0 123#A30047435B3EB2FF
(1774515065.875728) can0 124#A3075FA7AD0DFD08
(1774515065.885406) can0 123#A40047435A72F0FF
(1774515065.885727) can0 124#A4075FCE7E0DF008
(1774515065.895303) can0 123#A500474359C687FF
(1774515065.895503) can0 124#A5075FF5630DE508
(1774515065.905463) can0 123#A6004743591A1FFF
(1774515065.905500) can0 124#A607601C350DDA08
(1774515065.915212) can0 123#A7004743584E5EFF
(1774515065.915418) can0 124#A70760431C0DCD08
(1774515065.925143) can0 123#A800474357A1F6FF
(1774515065.925340) can0 124#A8076069EE0DC208
(1774515065.934973) can0 123#A900474356E5E1FF
(1774515065.935243) can0 124#A9076090D30DB608
(1774515065.945082) can0 123#AA004743563978FF
(1774515065.945188) can0 124#AA0760B79D0DAB08
(1774515065.954801) can0 123#AB004743557D64FF
(1774515065.954977) can0 124#AB0760DE790D9F08
(1774515065.964622) can0 123#AC00474354C14EFF
(1774515065.964764) can0 124#AC076105440D9308
(1774515065.974448) can0 123#AD0046435414E5FF
(1774515065.974716) can0 124#AD07612C240D8808
(1774515065.984374) can0 123#AE0046435358D1FF
(1774515065.984548) can0 124#AE076152F40D7C08
(1774515065.994400) can0 123#AF00464352AC68FF
(1774515065.994621) can0 124#AF076179DD0D7108
(1774515066.004275) can0 123#B000464351F054FF
(1774515066.004482) can0 124#B00761A0A80D6508
(1774515066.014414) can0 123#B100464351343FFF
(1774515066.014450) can0 124#B10761C78F0D5908
(1774515066.024015) can0 123#B20046435087D6FF
(1774515066.024147) can0 124#B20761EE610D4E08
(1774515066.034078) can0 123#B30046434FCBC2FF
(1774515066.034108) can0 124#B3076215440D4208
(1774515066.043877) can0 123#B40046434F1F59FF
(1774515066.044114) can0 124#B407623C0D0D3708
(1774515066.053719) can0 123#B50046434E6345FF
(1774515066.053912) can0 124#B5076262F70D2B08
(1774515066.063636) can0 123#B60046434DA72FFF
(1774515066.063648) can0 124#B6076289C80D1F08
(1774515066.074239) can0 123#B70046434CFAC6FF
(1774515066.074269) can0 124#B70762B0B30D1408
(1774515066.083416) can0 123#B80046434C3EB1FF
(1774515066.083664) can0 124#B80762D7810D0808
(1774515066.093327) can0 123#B90046434B9249FF
(1774515066.093582) can0 124#B90762FE630CFD08
(1774515066.103218) can0 123#BA0046434AD634FF
(1774515066.103457) can0 124#BA0763252B0CF108
(1774515066.113086) can0 123#BB0046434A1A20FF
(1774515066.113411) can0 124#BB07634C0E0CE508
(1774515066.122968) can0 123#BC004643496DB7FF
(1774515066.123218) can0 124#BC076372D80CDA08
(1774515066.132856) can0 123#BD00464348C14FFF
(1774515066.133031) can0 124#BD076399C10CCF08
(1774515066.142775) can0 123#BE00464348053AFF
(1774515066.142964) can0 124#BE0763C0920CC308
(1774515066.152660) can0 123#BF004643474924FF
(1774515066.152817) can0 124#BF0763E77A0CB708
(1774515066.162797) can0 123#C0004643469CBBFF
(1774515066.162815) can0 124#C007640E460CAC08
(1774515066.172464) can0 123#C100464345E0A7FF
(1774515066.172686) can0 124#C10764352B0CA008
(1774515066.182287) can0 123#C2004643452492FF
(1774515066.182505) can0 124#C207645BF50C9408
(1774515066.192253) can0 123#C30046434487D6FF
(1774515066.192409) can0 124#C3076482DB0C8A08
(1774515066.202265) can0 123#C400464343BC15FF
(1774515066.202736) can0 124#C40764A9A30C7D08
(1774515066.212030) can0 123#C5004643430000FF
(1774515066.212480) can0 124#C50764D08A0C7108
(1774515066.221963) can0 123#C6004643425398FF
(1774515066.222063) can0 124#C60764F75B0C6608
(1774515066.231833) can0 123#C7004643419783FF
(1774515066.232031) can0 124#C707651E3E0C5A08
(1774515066.241725) can0 123#C800464340EB1BFF
(1774515066.241864) can0 124#C80765450C0C4F08
(1774515066.251724) can0 123#C9004643403EB2FF
(1774515066.251874) can0 124#C907656BF30C4408
(1774515066.261598) can0 123#CA0046433F72F0FF
(1774515066.261765) can0 124#CA076592BD0C3708
(1774515066.271458) can0 123#CB0046433EC688FF
(1774515066.271768) can0 124#CB0765B99D0C2C08
(1774515066.281318) can0 123#CC0046433E1A1FFF
(1774515066.281472) can0 124#CC0765E0680C2108
(1774515066.291406) can0 123#CD0046433D5E0AFF
(1774515066.291443) can0 124#CD076607480C1508
(1774515066.301093) can0 123#CE0046433CA1F6FF
(1774515066.301366) can0 124#CE07662E0F0C0908
(1774515066.311079) can0 123#CF0046433BE5E1FF
(1774515066.311297) can0 124#CF076654EE0BFD08
(1774515066.321018) can0 123#D00046433B3979FF
(1774515066.321067) can0 124#D007667BB40BF208
(1774515066.331020) can0 123#D10046433A7D63FF
(1774515066.331185) can0 124#D10766A2950BE608
(1774515066.340818) can0 123#D200464339E0A8FF
(1774515066.341065) can0 124#D20766C9620BDC08
(1774515066.350851) can0 123#D30046433914E6FF
(1774515066.350899) can0 124#D30766F0470BCF08
(1774515066.360585) can0 123#D40046433858D1FF
(1774515066.360794) can0 124#D4076717190BC308
(1774515066.370633) can0 123#D500464337AC68FF
(1774515066.370680) can0 124#D507673E060BB808
(1774515066.380296) can0 123#D600464336F054FF
(1774515066.380394) can0 124#D6076764D40BAC08
(1774515066.390246) can0 123#D70046433643EBFF
(1774515066.390402) can0 124#D707678BBC0BA108
(1774515066.400138) can0 123#D80046433587D7FF
(1774515066.400358) can0 124#D80767B28C0B9508
(1774515066.409994) can0 123#D900464334CBC1FF
(1774515066.410200) can0 124#D90767D9770B8908
(1774515066.419939) can0 123#DA004643341F59FF
(1774515066.420036) can0 124#DA076800400B7E08
(1774515066.429929) can0 123#DB004643336344FF
(1774515066.429964) can0 124#DB076827280B7208
(1774515066.439634) can0 123#DC00464332B6DCFF
(1774515066.439865) can0 124#DC07684DED0B6708
(1774515066.449720) can0 123#DD00464331FAC6FF
(1774515066.449744) can0 124#DD076874D40B5B08
(1774515066.459432) can0 123#DE004643314E5EFF
(1774515066.459585) can0 124#DE07689B9D0B5008
(1774515066.469593) can0 123#DF004643309249FF
(1774515066.469617) can0 124#DF0768C2830B4408
(1774515066.479265) can0 123#E00046432FD635FF
(1774515066.479465) can0 124#E00768E9530B3808
(1774515066.489257) can0 123#E10046432F29CCFF
(1774515066.489468) can0 124#E1076910390B2D08
(1774515066.499209) can0 123#E20047432E6DB7FF
(1774515066.499407) can0 124#E20769370C0B2108
(1774515066.509174) can0 123#E30047432DB1A2FF
(1774515066.509217) can0 124#E307695DF30B1508
(1774515066.519039) can0 123#E40047432D053AFF
(1774515066.519079) can0 124#E4076984C10B0A08
(1774515066.528805) can0 123#E50047432C4924FF
(1774515066.528908) can0 124#E50769ABA40AFE08
(1774515066.538652) can0 123#E60047432BAC68FF
(1774515066.538954) can0 124#E60769D26C0AF408
(1774515066.548536) can0 123#E70047432AE0A7FF
(1774515066.548716) can0 124#E70769F9510AE708
(1774515066.558410) can0 123#E80046432A2492FF
(1774515066.558656) can0 124#E8076A201B0ADB08
(1774515066.568378) can0 123#E900474329782AFF
(1774515066.568547) can0 124#E9076A47090AD008
(1774515066.578283) can0 123#EA00464328BC15FF
(1774515066.578499) can0 124#EA076A6DCE0AC408
(1774515066.588139) can0 123#EB004643280FACFF
(1774515066.588257) can0 124#EB076A94B60AB908
(1774515066.598358) can0 123#EC004643276344FF
(1774515066.598372) can0 124#EC076ABB840AAE08
(1774515066.607946) can0 123#ED004643269783FF
(1774515066.608233) can0 124#ED076AE26A0AA108
(1774515066.617876) can0 123#EE00464325EB1AFF
(1774515066.618012) can0 124#EE076B093C0A9608
(1774515066.627745) can0 123#EF004643252F05FF
(1774515066.627956) can0 124#EF076B30260A8A08
(1774515066.637820) can0 123#F00046432472F0FF
(1774515066.637841) can0 124#F0076B56F80A7E08
(1774515066.647541) can0 123#F100464323C688FF
(1774515066.647741) can0 124#F1076B7DDA0A7308
(1774515066.657417) can0 123#F2004643231A1FFF
(1774515066.657557) can0 124#F2076BA4AA0A6808
(1774515066.667605) can0 123#F3004643225E0BFF
(1774515066.667633) can0 124#F3076BCB8D0A5C08
(1774515066.677371) can0 123#F400464321A1F5FF
(1774515066.677516) can0 124#F4076BF25A0A5008
(1774515066.687138) can0 123#F500464320F58DFF
(1774515066.687337) can0 124#F5076C19410A4508
(1774515066.696952) can0 123#F6004643203978FF
(1774515066.697185) can0 124#F6076C40190A3908
(1774515066.706906) can0 123#F70046431F7D63FF
(1774515066.707114) can0 124#F7076C66FD0A2D08
(1774515066.717144) can0 123#F80046431ED0FBFF
(1774515066.717164) can0 124#F8076C8DD10A2208
(1774515066.726875) can0 123#F90046431E14E6FF
(1774515066.726896) can0 124#F9076CB4BB0A1608
(1774515066.736639) can0 123#FA0046431D58D1FF
(1774515066.736803) can0 124#FA076CDB860A0A08
(1774515066.746660) can0 123#FB0046431CBC15FF
(1774515066.746692) can0 124#FB076D026A0A0008
(1774515066.756348) can0 123#FC0046431BF053FF
(1774515066.756687) can0 124#FC076D293609F308
(1774515066.766319) can0 123#FD0046431B43EBFF
(1774515066.766451) can0 124#FD076D501409E808
(1774515066.776166) can0 123#FE0046431A87D6FF
(1774515066.776448) can0 124#FE076D76E209DC08
(1774515066.786069) can0 123#FF00464319CBC2FF
(1774515066.786297) can0 124#FF076D9DC409D008
(1774515066.795998) can0 123#00004643191F59FF
(1774515066.796260) can0 124#00076DC49009C508
(1774515066.805875) can0 123#010046431872F0FF
(1774515066.806093) can0 124#01076DEB7209BA08
(1774515066.815732) can0 123#0200464317A72FFF
(1774515066.815998) can0 124#02076E123F09AD08
(1774515066.825640) can0 123#0300464316FAC7FF
(1774515066.825967) can0 124#03076E392609A208
(1774515066.835704) can0 123#04004643163EB1FF
(1774515066.835905) can0 124#04076E5FF2099608
(1774515066.845484) can0 123#05004643159249FF
(1774515066.845616) can0 124#05076E86D3098B08
(1774515066.855421) can0 123#0600464314D634FF
(1774515066.855570) can0 124#06076EADA4097F08
(1774515066.865289) can0 123#07004643141A20FF
(1774515066.865473) can0 124#07076ED488097308
(1774515066.875111) can0 123#08004643136DB7FF
(1774515066.875381) can0 124#08076EFB50096808
(1774515066.885062) can0 123#0900464312B1A2FF
(1774515066.885251) can0 124#09076F222F095C08
(1774515066.894939) can0 123#0A004643120539FF
(1774515066.895099) can0 124#0A076F48F9095108
(1774515066.904881) can0 123#0B004643114925FF
(1774515066.905000) can0 124#0B076F6FD9094508
(1774515066.914727) can0 123#0C004643108D10FF
(1774515066.914874) can0 124#0C076F96A0093908
(1774515066.924688) can0 123#0D0046430FE0A7FF
(1774515066.924849) can0 124#0D076FBD88092E08
(1774515066.934567) can0 123#0E0046430F2492FF
(1774515066.934798) can0 124#0E076FE44F092208
(1774515066.944518) can0 123#0F0046430E782AFF
(1774515066.944709) can0 124#0F07700B34091708
(1774515066.954391) can0 123#100046430DBC15FF
(1774515066.954502) can0 124#1007703201090B08
(1774515066.964399) can0 123#110046430D0000FF
(1774515066.964440) can0 124#11077058E608FF08
(1774515066.974115) can0 123#120046430C5398FF
(1774515066.974643) can0 124#1207707FB308F408
(1774515066.984063) can0 123#130046430B9782FF
(1774515066.984201) can0 124#130770A69908E808
(1774515066.993916) can0 123#140046430AEB1AFF
(1774515066.994206) can0 124#140770CD6808DD08
(1774515067.003820) can0 123#150046430A2F05FF
(1774515067.003982) can0 124#150770F45008D108
(1774515067.013872) can0 123#160046430972F0FF
(1774515067.013914) can0 124#1607711B2108C508
(1774515067.023687) can0 123#1700464308C688FF
(1774515067.023825) can0 124#170771420B08BA08
(1774515067.033615) can0 123#18004643081A20FF
(1774515067.033832) can0 124#18077168DD08AF08
(1774515067.043466) can0 123#19004643075E0AFF
(1774515067.043621) can0 124#1907718FC308A308
(1774515067.053488) can0 123#1A00464306A1F6FF
(1774515067.053530) can0 124#1A0771B694089708
(1774515067.063181) can0 123#1B00464305E5E0FF
(1774515067.063480) can0 124#1B0771DD7B088B08
(1774515067.073097) can0 123#1C004643053978FF
(1774515067.073292) can0 124#1C07720445088008
(1774515067.082945) can0 123#1D004643047D63FF
(1774515067.083204) can0 124#1D07722B2D087408
(1774515067.092877) can0 123#1E00464303E0A7FF
(1774515067.093080) can0 124#1E077251F6086A08
(1774515067.102770) can0 123#1F0046430314E6FF
(1774515067.103045) can0 124#1F077278DA085D08
(1774515067.112639) can0 123#200046430258D1FF
(1774515067.112889) can0 124#2007729FA9085108
(1774515067.122559) can0 123#2100464301AC68FF
(1774515067.122743) can0 124#210772C692084608
(1774515067.132507) can0 123#2200464300F054FF
(1774515067.132628) can0 124#220772ED5F083A08
(1774515067.142394) can0 123#230046430043EBFF
(1774515067.142674) can0 124#2307731446082F08
(1774515067.152550) can0 123#24004642FF2F05FF
(1774515067.152595) can0 124#2407733B13082408
(1774515067.162335) can0 123#25004642FD9782FF
(1774515067.162513) can0 124#25077361F7081708
(1774515067.172149) can0 123#26004642FC3EB1FF
(1774515067.172532) can0 124#26077388C1080C08
(1774515067.181956) can0 123#27004642FAC688FF
(1774515067.182272) can0 124#270773AFAA080008
(1774515067.191903) can0 123#28004642F96DB7FF
(1774515067.192033) can0 124#280773D67B07F508
(1774515067.201855) can0 123#29004642F7F58EFF
(1774515067.202285) can0 124#290773FD6107E908
(1774515067.212099) can0 123#2A004742F67D63FF
(1774515067.212131) can0 124#2A0774244507DD08
(1774515067.221667) can0 123#2B004742F52492FF
(1774515067.221800) can0 124#2B07744B2107D208
(1774515067.231588) can0 123#2C004642F3CBC1FF
(1774515067.231911) can0 124#2C077471EF07C708
(1774515067.241422) can0 123#2D004642F25398FF
(1774515067.241632) can0 124#2D077498DA07BB08
(1774515067.251333) can0 123#2E004642F0DB6DFF
(1774515067.251532) can0 124#2E0774BFA707AF08
(1774515067.261383) can0 123#2F004642EF6344FF
(1774515067.261414) can0 124#2F0774E69007A308
(1774515067.271095) can0 123#30004642EE0A73FF
(1774515067.271329) can0 124#3007750D5B079808
(1774515067.281006) can0 123#31004642EC924AFF
(1774515067.281132) can0 124#3107753449078C08
(1774515067.290942) can0 123#32004642EB58D1FF
(1774515067.290978) can0 124#3207755B1F078208
(1774515067.300692) can0 123#33004642E9C14EFF
(1774515067.300970) can0 124#3307758209077508
(1774515067.310647) can0 123#34004642E84925FF
(1774515067.310763) can0 124#340775A8DF076908
(1774515067.320513) can0 123#35004642E6F054FF
(1774515067.320875) can0 124#350775CFC9075E08
(1774515067.330401) can0 123#36004642E5782AFF
(1774515067.330752) can0 124#360775F6A0075208
(1774515067.340361) can0 123#37004642E41F59FF
(1774515067.340558) can0 124#3707761D8C074708
(1774515067.350187) can0 123#38004642E2C688FF
(1774515067.350435) can0 124#380776445D073C08
(1774515067.360263) can0 123#39004642E12F06FF
(1774515067.360292) can0 124#3907766B47072F08
(1774515067.369995) can0 123#3A004642DFD634FF
(1774515067.370139) can0 124#3A07769216072408
(1774515067.379826) can0 123#3B004642DE5E0AFF
(1774515067.380105) can0 124#3B0776B8F7071808
(1774515067.389951) can0 123#3C004642DD053AFF
(1774515067.389980) can0 124#3C0776DFC1070D08
(1774515067.399799) can0 123#3D004642DB8D0FFF
(1774515067.399946) can0 124#3D077706A6070108
(1774515067.409605) can0 123#3E004642DA343EFF
(1774515067.409833) can0 124#3E07772D7106F608
(1774515067.419539) can0 123#3F004642D8BC15FF
(1774515067.419717) can0 124#3F0777545606EA08
(1774515067.429386) can0 123#40004642D743EBFF
(1774515067.429564) can0 124#4007777B2406DE08
(1774515067.439291) can0 123#41004642D60A73FF
(1774515067.439417) can0 124#410777A20F06D408
(1774515067.449176) can0 123#42004642D472F0FF
(1774515067.449319) can0 124#420777C8D406C708
(1774515067.459065) can0 123#43004642D2FAC7FF
(1774515067.459436) can0 124#430777EFB806BB08
(1774515067.468974) can0 123#44004642D1A1F6FF
(1774515067.469197) can0 124#440778168906B008
(1774515067.479041) can0 123#45004642D029CBFF
(1774515067.479058) can0 124#4507783D7006A408
(1774515067.488858) can0 123#46004642CED0FAFF
(1774515067.488970) can0 124#4607786438069908
(1774515067.498664) can0 123#47004642CD7829FF
(1774515067.498826) can0 124#4707788B23068E08
(1774515067.508629) can0 123#48004642CBE0A8FF
(1774515067.508838) can0 124#480778B1F5068108
(1774515067.518639) can0 123#49004642CA687DFF
(1774515067.518665) can0 124#490778D8DF067508
(1774515067.528376) can0 123#4A004642C90FACFF
(1774515067.528566) can0 124#4A0778FFB1066A08
(1774515067.538507) can0 123#4B004642C79783FF
(1774515067.538530) can0 124#4B077926A4065E08
(1774515067.548166) can0 123#4C004642C63EB2FF
(1774515067.548423) can0 124#4C07794D71065308
(1774515067.558037) can0 123#4D004642C4E5E1FF
(1774515067.558384) can0 124#4D07797455064808
(1774515067.567935) can0 123#4E004642C34E5EFF
(1774515067.568138) can0 124#4E07799B26063B08
(1774515067.578092) can0 123#4F004642C1F58DFF
(1774515067.578107) can0 124#4F0779C209063008
(1774515067.587778) can0 123#50004642C07D64FF
(1774515067.588061) can0 124#500779E8DA062408
(1774515067.597688) can0 123#51004642BF2493FF
(1774515067.597856) can0 124#51077A0FC1061908
(1774515067.607524) can0 123#52004642BDAC68FF
(1774515067.607733) can0 124#52077A368F060D08
(1774515067.617540) can0 123#53004642BC5397FF
(1774515067.617567) can0 124#53077A5D75060208
(1774515067.627411) can0 123#54004642BADB6EFF
(1774515067.627431) can0 124#54077A843F05F608
(1774515067.637240) can0 123#55004642B96344FF
(1774515067.637526) can0 124#55077AAB2305EA08
(1774515067.647305) can0 123#56004642B829CBFF
(1774515067.647322) can0 124#56077AD1EA05E008
(1774515067.657073) can0 123#57004642B69249FF
(1774515067.657273) can0 124#57077AF8CD05D308
(1774515067.666981) can0 123#58004642B51A20FF
(1774515067.667270) can0 124#58077B1F9A05C708
(1774515067.676906) can0 123#59004642B3C14EFF
(1774515067.677098) can0 124#59077B467905BC08
(1774515067.686792) can0 123#5A004642B24925FF
(1774515067.687111) can0 124#5A077B6D4205B008
(1774515067.696619) can0 123#5B004642B0F053FF
(1774515067.697027) can0 124#5B077B942405A508
(1774515067.706536) can0 123#5C004642AF9782FF
(1774515067.706706) can0 124#5C077BBAEB059A08
(1774515067.716450) can0 123#5D004642AE0000FF
(1774515067.716617) can0 124#5D077BE1D3058D08
(1774515067.726475) can0 123#5E004642ACA72FFF
(1774515067.726512) can0 124#5E077C08A0058208
(1774515067.736202) can0 123#5F004642AB2F05FF
(1774515067.736426) can0 124#5F077C2F85057608
(1774515067.746223) can0 123#60004642A9D634FF
(1774515067.746621) can0 124#60077C564C056B08
(1774515067.755993) can0 123#61004642A85E0AFF
(1774515067.756232) can0 124#61077C7D2F055F08
(1774515067.766027) can0 123#62004642A6E5E0FF
(1774515067.766167) can0 124#62077CA3F8055308
(1774515067.775892) can0 123#63004642A58D0FFF
(1774515067.776069) can0 124#63077CCADE054808
(1774515067.785643) can0 123#64004642A414E6FF
(1774515067.785937) can0 124#64077CF1A8053C08
(1774515067.795617) can0 123#65004642A2BC15FF
(1774515067.795766) can0 124#65077D188A053108
(1774515067.805518) can0 123#66004642A143EBFF
(1774515067.805634) can0 124#66077D3F51052508
(1774515067.815699) can0 123#670046429FCBC1FF
(1774515067.815725) can0 124#67077D6637051908
(1774515067.825379) can0 123#680046429E5397FF
(1774515067.825398) can0 124#68077D8D00050D08
(1774515067.835156) can0 123#690046429CFAC6FF
(1774515067.835285) can0 124#69077DB3EC050208
(1774515067.844984) can0 123#6A0046429B829DFF
(1774515067.845236) can0 124#6A077DDAB504F608
(1774515067.854931) can0 123#6B0046429A29CCFF
(1774515067.855151) can0 124#6B077E019704EB08
(1774515067.864867) can0 123#6C00464298D0FBFF
(1774515067.865021) can0 124#6C077E286004E008
(1774515067.874861) can0 123#6D004642973978FF
(1774515067.875000) can0 124#6D077E4F3E04D308
(1774515067.884625) can0 123#6E00464295E0A7FF
(1774515067.884956) can0 124#6E077E760804C808
(1774515067.894689) can0 123#6F00464294687DFF
(1774515067.894707) can0 124#6F077E9CF004BC08
(1774515067.904450) can0 123#70004642930FADFF
(1774515067.904647) can0 124#70077EC3BD04B108
(1774515067.914555) can0 123#71004642919783FF
(1774515067.914570) can0 124#71077EEAA104A508
(1774515067.924247) can0 123#72004642903EB2FF
(1774515067.924471) can0 124#72077F1173049A08
(1774515067.934150) can0 123#730046428EC688FF
(1774515067.934343) can0 124#73077F385C048E08
(1774515067.944568) can0 123#740046428D6DB7FF
(1774515067.944612) can0 124#74077F5F2A048308
(1774515067.954005) can0 123#750046428BF58DFF
(1774515067.954447) can0 124#75077F8611047708
(1774515067.963814) can0 123#760046428A7D64FF
(1774515067.964040) can0 124#76077FACDF046B08
(1774515067.974000) can0 123#7700464289053AFF
(1774515067.974022) can0 124#77077FD3C5045F08
(1774515067.983779) can0 123#7800464287AC69FF
(1774515067.983819) can0 124#78077FFA8D045408
(1774515067.993466) can0 123#7900464286343FFF
(1774515067.993878) can0 124#7907802170044808
(1774515068.003417) can0 123#7A00464284FAC6FF
(1774515068.003549) can0 124#7A0780483B043E08
(1774515068.013313) can0 123#7B004642836344FF
(1774515068.013562) can0 124#7B07806F1E043108
(1774515068.023338) can0 123#7C00464281EB1AFF
(1774515068.023372) can0 124#7C078095E5042508
(1774515068.033109) can0 123#7D004642809249FF
(1774515068.033386) can0 124#7D0780BCCB041A08
(1774515068.043047) can0 123#7E0046427E343FFF
(1774515068.043166) can0 124#7E0780E399040E08
(1774515068.053013) can0 123#7F0046427B829DFF
(1774515068.053129) can0 124#7F07810A7D040308
(1774515068.062982) can0 123#8000474278D0FAFF
(1774515068.063000) can0 124#800781314F03F808
(1774515068.072953) can0 123#8100474275A1F5FF
(1774515068.072985) can0 124#810781583003EB08
(1774515068.082593) can0 123#8200474272F054FF
(1774515068.082755) can0 124#8207817EF903E008
(1774515068.092492) can0 123#83004742700000FF
(1774515068.092857) can0 124#830781A5DD03D408
(1774515068.102295) can0 123#840047426D4E5EFF
(1774515068.102548) can0 124#840781CCAD03C908
(1774515068.112219) can0 123#850047426A5E0AFF
(1774515068.112433) can0 124#850781F39103BD08
(1774515068.122117) can0 123#86004742676DB7FF
(1774515068.122333) can0 124#8607821A6003B108
(1774515068.132074) can0 123#87004742647D63FF
(1774515068.132277) can0 124#870782414603A508
(1774515068.141846) can0 123#8800474261CBC1FF
(1774515068.142079) can0 124#880782680F039A08
(1774515068.151813) can0 123#890047425F1A20FF
(1774515068.152013) can0 124#8907828EF6038F08
(1774515068.161634) can0 123#8A0047425C29CCFF
(1774515068.161912) can0 124#8A0782B5C2038308
(1774515068.171556) can0 123#8B004742593978FF
(1774515068.171922) can0 124#8B0782DCA7037708
(1774515068.181434) can0 123#8C004742564924FF
(1774515068.181729) can0 124#8C07830376036B08
(1774515068.191403) can0 123#8D004742539782FF
(1774515068.191587) can0 124#8D07832A58036008
(1774515068.201253) can0 123#8E00474250A72EFF
(1774515068.201470) can0 124#8E07835123035408
(1774515068.211155) can0 123#8F0047424DF58EFF
(1774515068.211375) can0 124#8F07837808034908
(1774515068.221017) can0 123#900047424B43EBFF
(1774515068.221269) can0 124#9007839ED1033E08
(1774515068.231008) can0 123#910047424814E6FF
(1774515068.231149) can0 124#910783C5BC033108
(1774515068.240891) can0 123#92004742456344FF
(1774515068.241092) can0 124#920783EC8A032608
(1774515068.250757) can0 123#930047424272F0FF
(1774515068.250982) can0 124#930784136E031A08
(1774515068.260703) can0 123#940046423FC14EFF
(1774515068.260886) can0 124#9407843A34030F08
(1774515068.270592) can0 123#950046423D0FADFF
(1774515068.270863) can0 124#9507846125030408
(1774515068.280433) can0 123#960046423A1F59FF
(1774515068.280706) can0 124#96078487F202F808
(1774515068.290412) can0 123#97004742372F05FF
(1774515068.290636) can0 124#970784AEE202EC08
(1774515068.300288) can0 123#98004642347D63FF
(1774515068.300629) can0 124#980784D5B502E108
(1774515068.310256) can0 123#99004642318D10FF
(1774515068.310660) can0 124#990784FC9502D508
(1774515068.320027) can0 123#9A0046422E9CBCFF
(1774515068.320294) can0 124#9A0785236302C908
(1774515068.329920) can0 123#9B0046422BEB1AFF
(1774515068.330171) can0 124#9B07854A4E02BE08
(1774515068.339856) can0 123#9C00464228FAC7FF
(1774515068.340080) can0 124#9C0785711D02B208
(1774515068.349744) can0 123#9D004642260A73FF
(1774515068.349992) can0 124#9D0785980202A608
(1774515068.359665) can0 123#9E004642239782FF
